! NanoVNA-App
! Date: 2025-03-10 22:21:13
! Start: 13MHz Stop: 16MHz Points: 1601
! S-Parameter data: F S11
# Hz S RI R 50
!     Frequency           S11_Real           S11_Imag
       13000000    5.273457170e-01    2.921653092e-01
       13001875    5.295017362e-01    2.865295112e-01
       13003750    5.314673185e-01    2.813243568e-01
       13005625    5.336493254e-01    2.757198811e-01
       13007500    5.356309414e-01    2.699218988e-01
       13009375    5.381937027e-01    2.642395496e-01
       13011250    5.396002531e-01    2.588039637e-01
       13013125    5.413193703e-01    2.534742951e-01
       13015000    5.432702899e-01    2.474714369e-01
       13016875    5.449860096e-01    2.421270907e-01
       13018750    5.467616916e-01    2.362974584e-01
       13020625    5.482987761e-01    2.303804606e-01
       13022500    5.497856736e-01    2.247356623e-01
       13024375    5.515241623e-01    2.190334797e-01
       13026250    5.529705286e-01    2.131600231e-01
       13028125    5.542812347e-01    2.073542625e-01
       13030000    5.559837222e-01    2.014349848e-01
       13031875    5.570738912e-01    1.956331432e-01
       13033750    5.583310127e-01    1.895465851e-01
       13035625    5.595860481e-01    1.836641133e-01
       13037500    5.609050989e-01    1.776645184e-01
       13039375    5.620225072e-01    1.715206206e-01
       13041250    5.630265474e-01    1.656442136e-01
       13043125    5.638173223e-01    1.595737636e-01
       13045000    5.650876164e-01    1.535712332e-01
       13046875    5.657970905e-01    1.477904618e-01
       13048750    5.665330291e-01    1.413961351e-01
       13050625    5.675047040e-01    1.353201419e-01
       13052500    5.678153634e-01    1.291417331e-01
       13054375    5.686964393e-01    1.229092479e-01
       13056250    5.689562559e-01    1.170565933e-01
       13058125    5.697147846e-01    1.106018350e-01
       13060000    5.706570745e-01    1.047956645e-01
       13061875    5.706766844e-01    9.826643765e-02
       13063750    5.708780885e-01    9.194419533e-02
       13065625    5.711073279e-01    8.573251963e-02
       13067500    5.713719726e-01    7.954324037e-02
       13069375    5.713828802e-01    7.335338742e-02
       13071250    5.713887215e-01    6.706324220e-02
       13073125    5.714915991e-01    6.064428389e-02
       13075000    5.714675188e-01    5.442766100e-02
       13076875    5.711717606e-01    4.803304002e-02
       13078750    5.710934997e-01    4.197282717e-02
       13080625    5.708500743e-01    3.568976000e-02
       13082500    5.704566240e-01    2.934359387e-02
       13084375    5.735408068e-01    2.203678899e-02
       13086250    5.682390332e-01    1.505794097e-02
       13088125    5.686245561e-01    6.508215796e-03
       13090000    5.683343410e-01    3.423662391e-03
       13091875    5.679169893e-01   -3.294507507e-03
       13093750    5.670707226e-01   -8.445133455e-03
       13095625    5.657414198e-01   -1.514955703e-02
       13097500    5.647450686e-01   -2.195583098e-02
       13099375    5.639726520e-01   -2.829060890e-02
       13101250    5.626355410e-01   -3.417772055e-02
       13103125    5.615673661e-01   -4.058388993e-02
       13105000    5.603287816e-01   -4.702412337e-02
       13106875    5.592459440e-01   -5.351015180e-02
       13108750    5.578252077e-01   -5.968260765e-02
       13110625    5.564398766e-01   -6.593704224e-02
       13112500    5.548729300e-01   -7.226988673e-02
       13114375    5.534659028e-01   -7.849426568e-02
       13116250    5.517401695e-01   -8.483408391e-02
       13118125    5.499246120e-01   -9.114276618e-02
       13120000    5.482014418e-01   -9.729576856e-02
       13121875    5.463386774e-01   -1.036944017e-01
       13123750    5.444692969e-01   -1.097286716e-01
       13125625    5.425691605e-01   -1.162271500e-01
       13127500    5.404103994e-01   -1.223725080e-01
       13129375    5.383575559e-01   -1.285567135e-01
       13131250    5.361263156e-01   -1.349067986e-01
       13133125    5.339365602e-01   -1.410240233e-01
       13135000    5.316945910e-01   -1.469319761e-01
       13136875    5.290556550e-01   -1.530963629e-01
       13138750    5.264834166e-01   -1.593931764e-01
       13140625    5.238840580e-01   -1.662872434e-01
       13142500    5.221688151e-01   -1.720321476e-01
       13144375    5.182591081e-01   -1.771158129e-01
       13146250    5.165942907e-01   -1.837526560e-01
       13148125    5.136606097e-01   -1.880496591e-01
       13150000    5.110508800e-01   -1.951544434e-01
       13151875    5.070569515e-01   -2.013974190e-01
       13153750    5.041215420e-01   -2.074070722e-01
       13155625    5.009775162e-01   -2.133712471e-01
       13157500    4.975651503e-01   -2.190659940e-01
       13159375    4.942848384e-01   -2.250165343e-01
       13161250    4.909785986e-01   -2.307256609e-01
       13163125    4.875638187e-01   -2.365862131e-01
       13165000    4.840796888e-01   -2.423795909e-01
       13166875    4.804921448e-01   -2.478482723e-01
       13168750    4.767037630e-01   -2.538166344e-01
       13170625    4.731008708e-01   -2.592751384e-01
       13172500    4.694582820e-01   -2.647619247e-01
       13174375    4.653793275e-01   -2.706349790e-01
       13176250    4.615261853e-01   -2.760811150e-01
       13178125    4.574994147e-01   -2.814365327e-01
       13180000    4.534229934e-01   -2.870154679e-01
       13181875    4.494769573e-01   -2.923215926e-01
       13183750    4.450221956e-01   -2.977935374e-01
       13185625    4.409086704e-01   -3.030414879e-01
       13187500    4.365312755e-01   -3.083544672e-01
       13189375    4.322662354e-01   -3.133890927e-01
       13191250    4.277274907e-01   -3.185704648e-01
       13193125    4.231522083e-01   -3.239185810e-01
       13195000    4.185099900e-01   -3.287661076e-01
       13196875    4.138655365e-01   -3.338470757e-01
       13198750    4.091158807e-01   -3.388873339e-01
       13200625    4.043706059e-01   -3.437728584e-01
       13202500    3.992288411e-01   -3.486847281e-01
       13204375    3.947232664e-01   -3.533311188e-01
       13206250    3.895892799e-01   -3.580587208e-01
       13208125    3.846458495e-01   -3.626815379e-01
       13210000    3.793847561e-01   -3.673121929e-01
       13211875    3.739717603e-01   -3.719545901e-01
       13213750    3.690444529e-01   -3.762995601e-01
       13215625    3.637865782e-01   -3.808015585e-01
       13217500    3.585422337e-01   -3.852570951e-01
       13219375    3.531981409e-01   -3.895145655e-01
       13221250    3.474629819e-01   -3.937000036e-01
       13223125    3.421416581e-01   -3.979487121e-01
       13225000    3.366378248e-01   -4.019869864e-01
       13226875    3.309774101e-01   -4.063197672e-01
       13228750    3.255141079e-01   -4.101102054e-01
       13230625    3.194362521e-01   -4.142667949e-01
       13232500    3.137452006e-01   -4.181822836e-01
       13234375    3.079203069e-01   -4.218449891e-01
       13236250    3.019333780e-01   -4.257656932e-01
       13238125    2.961178124e-01   -4.291471243e-01
       13240000    2.899638414e-01   -4.328401685e-01
       13241875    2.841367722e-01   -4.364701211e-01
       13243750    2.780287266e-01   -4.399060607e-01
       13245625    2.717836499e-01   -4.432062805e-01
       13247500    2.657514513e-01   -4.466069937e-01
       13249375    2.595161796e-01   -4.496241808e-01
       13251250    2.533002794e-01   -4.528342187e-01
       13253125    2.471954525e-01   -4.560400248e-01
       13255000    2.403655350e-01   -4.589977562e-01
       13256875    2.344682515e-01   -4.617103040e-01
       13258750    2.277686745e-01   -4.646134675e-01
       13260625    2.213236839e-01   -4.675666392e-01
       13262500    2.148573846e-01   -4.702736139e-01
       13264375    2.082736045e-01   -4.728508294e-01
       13266250    2.017491609e-01   -4.754002094e-01
       13268125    1.951190531e-01   -4.777658582e-01
       13270000    1.888723671e-01   -4.803681076e-01
       13271875    1.820527315e-01   -4.824146926e-01
       13273750    1.751622260e-01   -4.845331013e-01
       13275625    1.684188992e-01   -4.868251085e-01
       13277500    1.613361984e-01   -4.886591136e-01
       13279375    1.545406878e-01   -4.905492365e-01
       13281250    1.477928758e-01   -4.921535254e-01
       13283125    1.410064995e-01   -4.941042960e-01
       13285000    1.341960728e-01   -4.959790707e-01
       13286875    1.264544576e-01   -4.966624975e-01
       13288750    1.198686436e-01   -4.988850653e-01
       13290625    1.132673547e-01   -4.996681511e-01
       13292500    1.063173413e-01   -5.027467012e-01
       13294375    9.952378273e-02   -5.030307770e-01
       13296250    9.288430214e-02   -5.050631762e-01
       13298125    8.514070511e-02   -5.051890016e-01
       13300000    7.840676606e-02   -5.062143803e-01
       13301875    7.142199576e-02   -5.071748495e-01
       13303750    6.427492201e-02   -5.079938769e-01
       13305625    5.730586499e-02   -5.085285902e-01
       13307500    4.991408810e-02   -5.091905594e-01
       13309375    4.313025996e-02   -5.096635222e-01
       13311250    3.597259894e-02   -5.101720095e-01
       13313125    2.881410904e-02   -5.104944706e-01
       13315000    2.194140479e-02   -5.106439590e-01
       13316875    1.475597639e-02   -5.108745098e-01
       13318750    7.589080837e-03   -5.107952356e-01
       13320625    4.602355475e-04   -5.109196901e-01
       13322500   -6.930029951e-03   -5.107214451e-01
       13324375   -1.379551832e-02   -5.105772018e-01
       13326250   -2.071587555e-02   -5.102688670e-01
       13328125   -2.801438607e-02   -5.100271106e-01
       13330000   -3.513445333e-02   -5.093333721e-01
       13331875   -4.249211028e-02   -5.087926984e-01
       13333750   -4.922367632e-02   -5.079756379e-01
       13335625   -5.654666945e-02   -5.072943568e-01
       13337500   -6.352501363e-02   -5.065533519e-01
       13339375   -7.043141872e-02   -5.053129196e-01
       13341250   -7.766599953e-02   -5.043607950e-01
       13343125   -8.458609134e-02   -5.034521818e-01
       13345000   -9.156663716e-02   -5.021973252e-01
       13346875   -9.886709601e-02   -5.007900596e-01
       13348750   -1.056840718e-01   -4.994742274e-01
       13350625   -1.126745120e-01   -4.980074763e-01
       13352500   -1.195812151e-01   -4.963196218e-01
       13354375   -1.266078055e-01   -4.946591556e-01
       13356250   -1.336494386e-01   -4.928643703e-01
       13358125   -1.402533352e-01   -4.912455976e-01
       13360000   -1.472888440e-01   -4.891387224e-01
       13361875   -1.540024579e-01   -4.872485697e-01
       13363750   -1.608263999e-01   -4.852558672e-01
       13365625   -1.676859856e-01   -4.828204513e-01
       13367500   -1.742607653e-01   -4.807723165e-01
       13369375   -1.810874045e-01   -4.781571925e-01
       13371250   -1.876496524e-01   -4.759396613e-01
       13373125   -1.944280416e-01   -4.732311368e-01
       13375000   -2.011668384e-01   -4.705075324e-01
       13376875   -2.074811310e-01   -4.679685533e-01
       13378750   -2.141942680e-01   -4.649507403e-01
       13380625   -2.209426314e-01   -4.620897174e-01
       13382500   -2.271349728e-01   -4.593285322e-01
       13384375   -2.336784154e-01   -4.559087157e-01
       13386250   -2.400021851e-01   -4.529787302e-01
       13388125   -2.467913926e-01   -4.500585794e-01
       13390000   -2.528935075e-01   -4.463729560e-01
       13391875   -2.592240572e-01   -4.430648088e-01
       13393750   -2.654363215e-01   -4.395101070e-01
       13395625   -2.717475593e-01   -4.360580742e-01
       13397500   -2.779416144e-01   -4.328247905e-01
       13399375   -2.835438251e-01   -4.287536442e-01
       13401250   -2.895570695e-01   -4.251075089e-01
       13403125   -2.959906459e-01   -4.214335680e-01
       13405000   -3.015655875e-01   -4.170176387e-01
       13406875   -3.070485592e-01   -4.132899344e-01
       13408750   -3.133782446e-01   -4.091327190e-01
       13410625   -3.189226389e-01   -4.048980176e-01
       13412500   -3.249099255e-01   -4.008187950e-01
       13414375   -3.302614391e-01   -3.966114819e-01
       13416250   -3.359859884e-01   -3.923378289e-01
       13418125   -3.415205479e-01   -3.877740800e-01
       13420000   -3.468594551e-01   -3.834021091e-01
       13421875   -3.523734212e-01   -3.786592484e-01
       13423750   -3.574655354e-01   -3.740860820e-01
       13425625   -3.628527820e-01   -3.695239723e-01
       13427500   -3.680109084e-01   -3.648410141e-01
       13429375   -3.730752766e-01   -3.598863780e-01
       13431250   -3.781805634e-01   -3.551312089e-01
       13433125   -3.833739758e-01   -3.497309983e-01
       13435000   -3.884032965e-01   -3.450361490e-01
       13436875   -3.931562901e-01   -3.399272561e-01
       13438750   -3.978268206e-01   -3.350484967e-01
       13440625   -4.026286602e-01   -3.297821283e-01
       13442500   -4.072358906e-01   -3.243233562e-01
       13444375   -4.118081629e-01   -3.191661835e-01
       13446250   -4.161181450e-01   -3.139491379e-01
       13448125   -4.207881391e-01   -3.084225655e-01
       13450000   -4.249019325e-01   -3.029814959e-01
       13451875   -4.293019176e-01   -2.974316180e-01
       13453750   -4.337026477e-01   -2.918238640e-01
       13455625   -4.378387928e-01   -2.865709662e-01
       13457500   -4.419741929e-01   -2.806223035e-01
       13459375   -4.459292889e-01   -2.751016915e-01
       13461250   -4.496395886e-01   -2.695350051e-01
       13463125   -4.533431828e-01   -2.635900080e-01
       13465000   -4.571657777e-01   -2.579889297e-01
       13466875   -4.608981609e-01   -2.518130541e-01
       13468750   -4.643289745e-01   -2.460608929e-01
       13470625   -4.682613909e-01   -2.400980145e-01
       13472500   -4.716725349e-01   -2.341143191e-01
       13474375   -4.750240743e-01   -2.280967236e-01
       13476250   -4.785414934e-01   -2.216565758e-01
       13478125   -4.816699028e-01   -2.158786356e-01
       13480000   -4.850475192e-01   -2.096628547e-01
       13481875   -4.876536131e-01   -2.037000060e-01
       13483750   -4.905253351e-01   -1.974614412e-01
       13485625   -4.936325848e-01   -1.908631623e-01
       13487500   -4.960960150e-01   -1.848988980e-01
       13489375   -4.989772439e-01   -1.785956621e-01
       13491250   -5.017849803e-01   -1.722323000e-01
       13493125   -5.043720603e-01   -1.659270972e-01
       13495000   -5.067694783e-01   -1.593011618e-01
       13496875   -5.088251233e-01   -1.530485302e-01
       13498750   -5.114970803e-01   -1.466392279e-01
       13500625   -5.135698318e-01   -1.403214335e-01
       13502500   -5.157725811e-01   -1.341534257e-01
       13504375   -5.177612305e-01   -1.274634451e-01
       13506250   -5.196005702e-01   -1.211919636e-01
       13508125   -5.216058493e-01   -1.145640314e-01
       13510000   -5.234249830e-01   -1.078388989e-01
       13511875   -5.252915621e-01   -1.014833152e-01
       13513750   -5.270462036e-01   -9.473142773e-02
       13515625   -5.285404325e-01   -8.813656867e-02
       13517500   -5.299807191e-01   -8.151293546e-02
       13519375   -5.313595533e-01   -7.477548718e-02
       13521250   -5.326191187e-01   -6.835746765e-02
       13523125   -5.338565111e-01   -6.195260212e-02
       13525000   -5.350877643e-01   -5.531670898e-02
       13526875   -5.359969139e-01   -4.860973731e-02
       13528750   -5.370677710e-01   -4.190085828e-02
       13530625   -5.378406048e-01   -3.530943394e-02
       13532500   -5.386411548e-01   -2.858763747e-02
       13534375   -5.393900275e-01   -2.167570777e-02
       13536250   -5.399248004e-01   -1.506418735e-02
       13538125   -5.405992866e-01   -8.497254923e-03
       13540000   -5.410605073e-01   -2.025139285e-03
       13541875   -5.415488482e-01    4.705641419e-03
       13543750   -5.417597890e-01    1.139912382e-02
       13545625   -5.421604514e-01    1.773431525e-02
       13547500   -5.424399376e-01    2.422914840e-02
       13549375   -5.423231721e-01    3.099547327e-02
       13551250   -5.423523188e-01    3.773154691e-02
       13553125   -5.420222878e-01    4.453185946e-02
       13555000   -5.419231057e-01    5.105310306e-02
       13556875   -5.416790247e-01    5.771597102e-02
       13558750   -5.414965153e-01    6.417676061e-02
       13560625   -5.412248969e-01    7.092589885e-02
       13562500   -5.405096412e-01    7.748163491e-02
       13564375   -5.401420593e-01    8.390475065e-02
       13566250   -5.394248962e-01    9.060137719e-02
       13568125   -5.387038589e-01    9.695164859e-02
       13570000   -5.375387073e-01    1.037135050e-01
       13571875   -5.368820429e-01    1.097533777e-01
       13573750   -5.361716151e-01    1.163121089e-01
       13575625   -5.352643728e-01    1.226624995e-01
       13577500   -5.341032147e-01    1.291289181e-01
       13579375   -5.329249501e-01    1.355683655e-01
       13581250   -5.318078399e-01    1.415773630e-01
       13583125   -5.303336978e-01    1.481720060e-01
       13585000   -5.288161039e-01    1.547954530e-01
       13586875   -5.273549557e-01    1.610023230e-01
       13588750   -5.257489085e-01    1.673289686e-01
       13590625   -5.240033865e-01    1.734458357e-01
       13592500   -5.225970745e-01    1.798602343e-01
       13594375   -5.205156207e-01    1.861297339e-01
       13596250   -5.191313028e-01    1.919376850e-01
       13598125   -5.170989633e-01    1.980368942e-01
       13600000   -5.152962804e-01    2.041631192e-01
       13601875   -5.132034421e-01    2.104535252e-01
       13603750   -5.106967092e-01    2.163968533e-01
       13605625   -5.085746050e-01    2.223227769e-01
       13607500   -5.062435865e-01    2.283185720e-01
       13609375   -5.040438771e-01    2.344249487e-01
       13611250   -5.015580654e-01    2.402812093e-01
       13613125   -4.991456866e-01    2.461023033e-01
       13615000   -4.968577921e-01    2.516706288e-01
       13616875   -4.944908619e-01    2.576468885e-01
       13618750   -4.919908345e-01    2.634931505e-01
       13620625   -4.891968668e-01    2.691555619e-01
       13622500   -4.865029752e-01    2.747058570e-01
       13624375   -4.835883975e-01    2.803332508e-01
       13626250   -4.805700481e-01    2.859368622e-01
       13628125   -4.773580730e-01    2.916767895e-01
       13630000   -4.745956063e-01    2.970179915e-01
       13631875   -4.713659585e-01    3.025210202e-01
       13633750   -4.685495496e-01    3.079051077e-01
       13635625   -4.654172063e-01    3.134104311e-01
       13637500   -4.619198442e-01    3.188352287e-01
       13639375   -4.589713216e-01    3.240442872e-01
       13641250   -4.557006955e-01    3.293731809e-01
       13643125   -4.522203207e-01    3.345229626e-01
       13645000   -4.488037527e-01    3.395827115e-01
       13646875   -4.450122416e-01    3.447771668e-01
       13648750   -4.416979551e-01    3.497349024e-01
       13650625   -4.380334914e-01    3.548287451e-01
       13652500   -4.343439043e-01    3.598098159e-01
       13654375   -4.307531416e-01    3.648905456e-01
       13656250   -4.270142019e-01    3.698254228e-01
       13658125   -4.233105779e-01    3.747728169e-01
       13660000   -4.199348092e-01    3.794103563e-01
       13661875   -4.158928096e-01    3.840569258e-01
       13663750   -4.121670425e-01    3.890843093e-01
       13665625   -4.079170227e-01    3.934139311e-01
       13667500   -4.039487541e-01    3.977991939e-01
       13669375   -3.997989893e-01    4.024717808e-01
       13671250   -3.955289423e-01    4.069038630e-01
       13673125   -3.916544318e-01    4.113455713e-01
       13675000   -3.874295950e-01    4.158569872e-01
       13676875   -3.831942081e-01    4.203323424e-01
       13678750   -3.789366186e-01    4.244671464e-01
       13680625   -3.746280074e-01    4.287938476e-01
       13682500   -3.704760969e-01    4.338902235e-01
       13684375   -3.661923707e-01    4.368893206e-01
       13686250   -3.615756035e-01    4.408945441e-01
