! NanoVNA-App
! Date: 2025-03-12 17:46:29
! Start: 144MHz Stop: 148MHz Points: 1601
! S-Parameter data: F S11
# Hz S RI R 50
!     Frequency           S11_Real           S11_Imag
      144000000    1.151780039e-01   -1.129353717e-01
      144002500    1.149300188e-01   -1.133624837e-01
      144005000    1.145816445e-01   -1.138658449e-01
      144007500    1.142683774e-01   -1.143274903e-01
      144010000    1.139272377e-01   -1.148725376e-01
      144012500    1.135378554e-01   -1.154375747e-01
      144015000    1.133885458e-01   -1.159025505e-01
      144017500    1.130655780e-01   -1.163571700e-01
      144020000    1.129050776e-01   -1.168494150e-01
      144022500    1.125389710e-01   -1.173639446e-01
      144025000    1.122111008e-01   -1.179189533e-01
      144027500    1.120377034e-01   -1.183602512e-01
      144030000    1.117061079e-01   -1.188355386e-01
      144032500    1.114560068e-01   -1.193451807e-01
      144035000    1.111711115e-01   -1.198121458e-01
      144037500    1.109281629e-01   -1.203422248e-01
      144040000    1.105976254e-01   -1.208384112e-01
      144042500    1.101809517e-01   -1.213461980e-01
      144045000    1.099845469e-01   -1.217985079e-01
      144047500    1.095097214e-01   -1.222464368e-01
      144050000    1.090772077e-01   -1.228022575e-01
      144052500    1.086462215e-01   -1.231820956e-01
      144055000    1.082239524e-01   -1.236259863e-01
      144057500    1.076737344e-01   -1.240990013e-01
      144060000    1.070391610e-01   -1.245044023e-01
      144062500    1.066225991e-01   -1.248238459e-01
      144065000    1.060238108e-01   -1.252091080e-01
      144067500    1.053244323e-01   -1.255989373e-01
      144070000    1.048480645e-01   -1.259246916e-01
      144072500    1.043087468e-01   -1.261912137e-01
      144075000    1.035820991e-01   -1.265084445e-01
      144077500    1.029745638e-01   -1.267980635e-01
      144080000    1.024730280e-01   -1.270959675e-01
      144082500    1.018155292e-01   -1.273946017e-01
      144085000    1.011643186e-01   -1.277704537e-01
      144087500    1.005578861e-01   -1.279765815e-01
      144090000    9.994589537e-02   -1.283462495e-01
      144092500    9.926525503e-02   -1.287433654e-01
      144095000    9.861596674e-02   -1.290446371e-01
      144097500    9.806141257e-02   -1.292937100e-01
      144100000    9.733343869e-02   -1.296087056e-01
      144102500    9.662962705e-02   -1.299768090e-01
      144105000    9.606211632e-02   -1.302549839e-01
      144107500    9.526696801e-02   -1.305132061e-01
      144110000    9.450212866e-02   -1.308392286e-01
      144112500    9.383775294e-02   -1.310438961e-01
      144115000    9.324906021e-02   -1.313044578e-01
      144117500    9.245292097e-02   -1.315595806e-01
      144120000    9.166149795e-02   -1.318732202e-01
      144122500    9.087628871e-02   -1.321151704e-01
      144125000    9.013941884e-02   -1.323668063e-01
      144127500    8.925256133e-02   -1.325817704e-01
      144130000    8.871084452e-02   -1.328351051e-01
      144132500    8.810779452e-02   -1.330411583e-01
      144135000    8.751775324e-02   -1.332699955e-01
      144137500    8.688422292e-02   -1.337428242e-01
      144140000    8.647651225e-02   -1.340197772e-01
      144142500    8.600045741e-02   -1.343286037e-01
      144145000    8.568471670e-02   -1.346746534e-01
      144147500    8.546169102e-02   -1.350260377e-01
      144150000    8.506428450e-02   -1.353816986e-01
      144152500    8.477921784e-02   -1.358624101e-01
      144155000    8.455184847e-02   -1.361850202e-01
      144157500    8.416056633e-02   -1.365762651e-01
      144160000    8.229748160e-02   -1.372218430e-01
      144162500    8.352556080e-02   -1.374606937e-01
      144165000    8.159372211e-02   -1.374860555e-01
      144167500    8.127979189e-02   -1.379595697e-01
      144170000    8.112879097e-02   -1.384128034e-01
      144172500    7.877120376e-02   -1.399255395e-01
      144175000    7.860163599e-02   -1.400224417e-01
      144177500    7.886564732e-02   -1.401526779e-01
      144180000    8.113192767e-02   -1.402622163e-01
      144182500    8.088783175e-02   -1.405670494e-01
      144185000    8.058729768e-02   -1.409461796e-01
      144187500    8.011699468e-02   -1.413600147e-01
      144190000    7.971592993e-02   -1.417787969e-01
      144192500    7.934084535e-02   -1.421293616e-01
      144195000    7.867152244e-02   -1.425522566e-01
      144197500    7.577960938e-02   -1.428098381e-01
      144200000    7.538485527e-02   -1.431171447e-01
      144202500    7.591583580e-02   -1.431774348e-01
      144205000    7.505922765e-02   -1.436298341e-01
      144207500    7.487218827e-02   -1.438188404e-01
      144210000    7.620897144e-02   -1.445225775e-01
      144212500    7.544855773e-02   -1.448618025e-01
      144215000    7.482118905e-02   -1.450347155e-01
      144217500    7.428866625e-02   -1.452515721e-01
      144220000    7.375808805e-02   -1.454745531e-01
      144222500    7.297920436e-02   -1.456600875e-01
      144225000    7.223436981e-02   -1.458484381e-01
      144227500    7.164343446e-02   -1.460403055e-01
      144230000    7.085593045e-02   -1.460356116e-01
      144232500    7.012746483e-02   -1.462854147e-01
      144235000    6.964127719e-02   -1.466097385e-01
      144237500    6.891965121e-02   -1.466254145e-01
      144240000    6.823656708e-02   -1.467001438e-01
      144242500    6.735020876e-02   -1.468213797e-01
      144245000    6.672295928e-02   -1.469553858e-01
      144247500    6.603351235e-02   -1.470673382e-01
      144250000    6.380715966e-02   -1.465629190e-01
      144252500    6.317934394e-02   -1.466687769e-01
      144255000    6.222642958e-02   -1.466991007e-01
      144257500    6.145827100e-02   -1.467221975e-01
      144260000    6.080255657e-02   -1.467923522e-01
      144262500    5.998381972e-02   -1.468534023e-01
      144265000    5.903974175e-02   -1.467985362e-01
      144267500    5.837283283e-02   -1.468779594e-01
      144270000    5.773788691e-02   -1.468480676e-01
      144272500    5.709532648e-02   -1.469109803e-01
      144275000    5.629751459e-02   -1.469773203e-01
      144277500    5.572835729e-02   -1.471297741e-01
      144280000    5.511407182e-02   -1.472348273e-01
      144282500    5.446065590e-02   -1.475258023e-01
      144285000    5.386795476e-02   -1.477623880e-01
      144287500    5.349935964e-02   -1.479898393e-01
      144290000    5.297083408e-02   -1.482560933e-01
      144292500    5.250086263e-02   -1.484957933e-01
      144295000    5.210338160e-02   -1.488542110e-01
      144297500    5.156000704e-02   -1.491503268e-01
      144300000    5.097731203e-02   -1.494594812e-01
      144302500    5.050309747e-02   -1.497674882e-01
      144305000    5.006114766e-02   -1.499608457e-01
      144307500    4.933598265e-02   -1.502132863e-01
      144310000    4.912609607e-02   -1.504462361e-01
      144312500    4.839633033e-02   -1.506990045e-01
      144315000    4.789364710e-02   -1.508380473e-01
      144317500    4.743911326e-02   -1.511133313e-01
      144320000    4.677366838e-02   -1.511810124e-01
      144322500    4.628036916e-02   -1.513666660e-01
      144325000    4.562908784e-02   -1.514642686e-01
      144327500    4.503355920e-02   -1.514675021e-01
      144330000    4.451676458e-02   -1.516440809e-01
      144332500    4.391679168e-02   -1.517142504e-01
      144335000    4.326001927e-02   -1.517760605e-01
      144337500    4.258722067e-02   -1.518356353e-01
      144340000    4.207555950e-02   -1.518130004e-01
      144342500    4.140944779e-02   -1.518374085e-01
      144345000    4.084696248e-02   -1.519153267e-01
      144347500    4.011728987e-02   -1.518947929e-01
      144350000    3.955856711e-02   -1.518379897e-01
      144352500    3.886398673e-02   -1.517906487e-01
      144355000    3.827095404e-02   -1.517943889e-01
      144357500    3.778713569e-02   -1.517806798e-01
      144360000    3.720957041e-02   -1.517020017e-01
      144362500    3.659904376e-02   -1.517260820e-01
      144365000    3.590992466e-02   -1.518180519e-01
      144367500    3.536266461e-02   -1.517123729e-01
      144370000    3.459949419e-02   -1.515739858e-01
      144372500    3.403152153e-02   -1.515613496e-01
      144375000    3.337697312e-02   -1.514500827e-01
      144377500    3.277887776e-02   -1.513401568e-01
      144380000    3.218219057e-02   -1.511340886e-01
      144382500    3.148126602e-02   -1.510768533e-01
      144385000    3.082964383e-02   -1.509373486e-01
      144387500    3.008493409e-02   -1.507030129e-01
      144390000    2.959789522e-02   -1.505146772e-01
      144392500    2.895364165e-02   -1.503466219e-01
      144395000    2.828787640e-02   -1.500808746e-01
      144397500    2.764117159e-02   -1.499048769e-01
      144400000    2.720209770e-02   -1.496818960e-01
      144402500    2.649887651e-02   -1.493771225e-01
      144405000    2.577705123e-02   -1.491605937e-01
      144407500    2.511054836e-02   -1.489436626e-01
      144410000    2.457693964e-02   -1.487976313e-01
      144412500    2.387752384e-02   -1.485218555e-01
      144415000    2.320522256e-02   -1.483145803e-01
      144417500    2.255749516e-02   -1.481087804e-01
      144420000    2.191074565e-02   -1.479571462e-01
      144422500    2.136625163e-02   -1.478388458e-01
      144425000    2.072289959e-02   -1.476003081e-01
      144427500    2.028575540e-02   -1.476296186e-01
      144430000    1.970853098e-02   -1.476194859e-01
      144432500    1.925064810e-02   -1.473922729e-01
      144435000    1.877180114e-02   -1.474466175e-01
      144437500    1.818901487e-02   -1.474972963e-01
      144440000    1.769748889e-02   -1.474688351e-01
      144442500    1.717544533e-02   -1.474063247e-01
      144445000    1.675946638e-02   -1.475084126e-01
      144447500    1.622181945e-02   -1.473908722e-01
      144450000    1.573848538e-02   -1.472809762e-01
      144452500    1.523299422e-02   -1.471680254e-01
      144455000    1.485775411e-02   -1.470939666e-01
      144457500    1.422163378e-02   -1.468648165e-01
      144460000    1.365617756e-02   -1.468023807e-01
      144462500    1.316857617e-02   -1.466387808e-01
      144465000    1.291445643e-02   -1.465586871e-01
      144467500    1.213441510e-02   -1.461953074e-01
      144470000    1.151746698e-02   -1.459764242e-01
      144472500    1.107830834e-02   -1.457147449e-01
      144475000    1.047944278e-02   -1.453115791e-01
      144477500    1.007216983e-02   -1.451406181e-01
      144480000    9.552062489e-03   -1.448521912e-01
      144482500    9.067986161e-03   -1.445332915e-01
      144485000    8.539756760e-03   -1.441195160e-01
      144487500    8.168462664e-03   -1.439656764e-01
      144490000    7.584567182e-03   -1.435733885e-01
      144492500    7.149106823e-03   -1.433494985e-01
      144495000    6.661473308e-03   -1.431367248e-01
      144497500    6.356721278e-03   -1.429377198e-01
      144500000    6.229923107e-03   -1.433599293e-01
      144502500    5.633842200e-03   -1.432651281e-01
      144505000    5.180016626e-03   -1.430409253e-01
      144507500    4.802191630e-03   -1.428716779e-01
      144510000    4.253253341e-03   -1.426750124e-01
      144512500    3.688515630e-03   -1.424646825e-01
      144515000    3.184232395e-03   -1.423311830e-01
      144517500    3.011501627e-03   -1.421176046e-01
      144520000    2.315206220e-03   -1.417310238e-01
      144522500    1.840193872e-03   -1.414437294e-01
      144525000    1.372657716e-03   -1.410517097e-01
      144527500    8.713618736e-04   -1.407558024e-01
      144530000    3.805726883e-04   -1.404189914e-01
      144532500   -6.400379789e-05   -1.400684118e-01
      144535000   -6.316438667e-04   -1.397239715e-01
      144537500   -1.005462022e-03   -1.394639164e-01
      144540000   -1.361730974e-03   -1.390199214e-01
      144542500   -1.904067234e-03   -1.387450099e-01
      144545000   -2.422524150e-03   -1.384363323e-01
      144547500   -2.875102451e-03   -1.381502599e-01
      144550000   -3.297060961e-03   -1.377247721e-01
      144552500   -3.810027381e-03   -1.374806464e-01
      144555000   -4.398150370e-03   -1.371336728e-01
      144557500   -4.874355625e-03   -1.368253678e-01
      144560000   -5.280095153e-03   -1.365608722e-01
      144562500   -5.748832133e-03   -1.362896711e-01
      144565000   -6.165151019e-03   -1.360262930e-01
      144567500   -6.681471597e-03   -1.356984824e-01
      144570000   -7.121266797e-03   -1.354256421e-01
      144572500   -7.422219031e-03   -1.351072490e-01
      144575000   -7.894105278e-03   -1.347721517e-01
      144577500   -8.301901631e-03   -1.345402151e-01
      144580000   -8.776323870e-03   -1.341571659e-01
      144582500   -9.188604541e-03   -1.338516027e-01
      144585000   -9.676065296e-03   -1.335524619e-01
      144587500   -1.025581080e-02   -1.332353503e-01
      144590000   -1.073015295e-02   -1.328877956e-01
      144592500   -1.127334405e-02   -1.325777471e-01
      144595000   -1.178004313e-02   -1.323090196e-01
      144597500   -1.231840998e-02   -1.319451779e-01
      144600000   -1.277561858e-02   -1.316116899e-01
      144602500   -1.336331200e-02   -1.313183606e-01
      144605000   -1.378912013e-02   -1.310599893e-01
      144607500   -1.425624080e-02   -1.306728870e-01
      144610000   -1.488902234e-02   -1.300794482e-01
      144612500   -1.561301108e-02   -1.295659691e-01
      144615000   -1.558163296e-02   -1.298354715e-01
      144617500   -1.634751074e-02   -1.291901022e-01
      144620000   -1.648622751e-02   -1.289951056e-01
      144622500   -1.686808467e-02   -1.285705566e-01
      144625000   -1.713730954e-02   -1.283340007e-01
      144627500   -1.767301373e-02   -1.278275549e-01
      144630000   -1.804686710e-02   -1.275059283e-01
      144632500   -1.846133731e-02   -1.270536780e-01
      144635000   -1.896993443e-02   -1.267375052e-01
      144637500   -1.930257492e-02   -1.264090985e-01
      144640000   -1.973134279e-02   -1.260324866e-01
      144642500   -2.017805539e-02   -1.257025301e-01
      144645000   -2.066061273e-02   -1.253470331e-01
      144647500   -2.102867141e-02   -1.250506639e-01
      144650000   -2.142381109e-02   -1.246828362e-01
      144652500   -2.180941589e-02   -1.243171468e-01
      144655000   -2.216559649e-02   -1.239462420e-01
      144657500   -2.247941308e-02   -1.236319914e-01
      144660000   -2.271772921e-02   -1.231055111e-01
      144662500   -2.306346968e-02   -1.226982698e-01
      144665000   -2.335770056e-02   -1.222273558e-01
      144667500   -2.367370762e-02   -1.216888949e-01
      144670000   -2.391989529e-02   -1.211565211e-01
      144672500   -2.421470359e-02   -1.206611693e-01
      144675000   -2.454469539e-02   -1.201611459e-01
      144677500   -2.494590729e-02   -1.196952611e-01
      144680000   -2.520262077e-02   -1.191913038e-01
      144682500   -2.545724437e-02   -1.187948212e-01
      144685000   -2.586255595e-02   -1.182876155e-01
      144687500   -2.623135410e-02   -1.179577336e-01
      144690000   -2.661573328e-02   -1.176134646e-01
      144692500   -2.696838044e-02   -1.172444150e-01
      144695000   -2.731191553e-02   -1.169836000e-01
      144697500   -2.765963040e-02   -1.166077852e-01
      144700000   -2.812656015e-02   -1.160541624e-01
      144702500   -2.847061493e-02   -1.157781854e-01
      144705000   -2.877403609e-02   -1.153925955e-01
      144707500   -2.902261913e-02   -1.150496677e-01
      144710000   -2.925580554e-02   -1.146197394e-01
      144712500   -2.960303798e-02   -1.142478213e-01
      144715000   -2.991668507e-02   -1.137211397e-01
      144717500   -3.032118268e-02   -1.132719517e-01
      144720000   -3.057666682e-02   -1.128231585e-01
      144722500   -3.091850318e-02   -1.122488528e-01
      144725000   -3.124443628e-02   -1.117522195e-01
      144727500   -3.157924116e-02   -1.112350002e-01
      144730000   -3.181831911e-02   -1.108756065e-01
      144732500   -3.216503933e-02   -1.103950366e-01
      144735000   -3.237602487e-02   -1.100131944e-01
      144737500   -3.265887126e-02   -1.096984297e-01
      144740000   -3.287802637e-02   -1.093407571e-01
      144742500   -3.310241178e-02   -1.090243980e-01
      144745000   -3.342099488e-02   -1.087498814e-01
      144747500   -3.366627172e-02   -1.084415764e-01
      144750000   -3.365083411e-02   -1.079671010e-01
      144752500   -3.381134942e-02   -1.075074002e-01
      144755000   -3.401605785e-02   -1.071265489e-01
      144757500   -3.442220762e-02   -1.066793650e-01
      144760000   -3.460129723e-02   -1.062619761e-01
      144762500   -3.483203426e-02   -1.058508903e-01
      144765000   -3.501523286e-02   -1.055388898e-01
      144767500   -3.529802710e-02   -1.051751152e-01
      144770000   -3.553318232e-02   -1.047889367e-01
      144772500   -3.571489826e-02   -1.045029238e-01
      144775000   -3.600079939e-02   -1.041088402e-01
      144777500   -3.636311740e-02   -1.037059799e-01
      144780000   -3.651982546e-02   -1.033215523e-01
      144782500   -3.688358516e-02   -1.028055847e-01
      144785000   -3.707180917e-02   -1.023571864e-01
      144787500   -3.713661060e-02   -1.019279957e-01
      144790000   -3.743237257e-02   -1.013647318e-01
      144792500   -3.748602793e-02   -1.009238884e-01
      144795000   -3.733872995e-02   -9.840815514e-02
      144797500   -3.768332303e-02   -1.001640484e-01
      144800000   -3.773353249e-02   -9.963754565e-02
      144802500   -3.783306852e-02   -9.921249002e-02
      144805000   -3.790264949e-02   -9.873585403e-02
      144807500   -3.804381937e-02   -9.825454652e-02
      144810000   -3.818607703e-02   -9.783798456e-02
      144812500   -4.053738341e-02   -9.302815050e-02
      144815000   -3.847970441e-02   -9.703031182e-02
      144817500   -3.872407600e-02   -9.655703604e-02
      144820000   -3.884921595e-02   -9.614092112e-02
      144822500   -3.902445361e-02   -9.569138288e-02
      144825000   -3.916851059e-02   -9.541838616e-02
      144827500   -3.938460723e-02   -9.486023337e-02
      144830000   -3.956215829e-02   -9.438274801e-02
      144832500   -3.993858024e-02   -9.370235354e-02
      144835000   -4.000784084e-02   -9.319382161e-02
      144837500   -4.015768319e-02   -9.269160777e-02
      144840000   -4.036418721e-02   -9.211546183e-02
      144842500   -4.036302865e-02   -9.173963219e-02
      144845000   -4.046447203e-02   -9.113021195e-02
      144847500   -4.059397802e-02   -9.070690721e-02
      144850000   -4.070833698e-02   -9.025548398e-02
      144852500   -4.081788659e-02   -8.973602951e-02
      144855000   -4.098810256e-02   -8.934438229e-02
      144857500   -4.098006710e-02   -8.889137954e-02
      144860000   -4.114818200e-02   -8.840544522e-02
      144862500   -4.117951542e-02   -8.791609108e-02
      144865000   -4.129056633e-02   -8.747753501e-02
      144867500   -4.127455503e-02   -8.706524968e-02
      144870000   -4.138598591e-02   -8.654301614e-02
      144872500   -4.146423191e-02   -8.608570695e-02
      144875000   -4.254459217e-02   -8.259327710e-02
      144877500   -4.159492627e-02   -8.513171226e-02
      144880000   -4.153182730e-02   -8.472382277e-02
      144882500   -4.160428047e-02   -8.428864926e-02
      144885000   -4.169961438e-02   -8.386746794e-02
      144887500   -4.179648310e-02   -8.345943689e-02
      144890000   -4.175807163e-02   -8.338959515e-02
      144892500   -4.169416428e-02   -8.302560449e-02
      144895000   -4.185243323e-02   -8.256866038e-02
      144897500   -4.195773974e-02   -8.229411393e-02
      144900000   -4.195183888e-02   -8.190675825e-02
      144902500   -4.203974828e-02   -8.152362704e-02
      144905000   -4.210527986e-02   -8.096839488e-02
      144907500   -4.220256954e-02   -8.062212169e-02
      144910000   -4.226784036e-02   -8.022779971e-02
      144912500   -4.222892970e-02   -7.980023324e-02
      144915000   -4.220994934e-02   -7.934416085e-02
