! NanoVNA-App
! Date: 2025-03-10 22:19:46
! Start: 13MHz Stop: 16MHz Points: 1601
! S-Parameter data: F S11
# Hz S RI R 50
!     Frequency           S11_Real           S11_Imag
       13000000    5.407092571e-01    2.484486997e-01
       13001875    5.424320698e-01    2.426614165e-01
       13003750    5.438230634e-01    2.367956042e-01
       13005625    5.453853011e-01    2.308532596e-01
       13007500    5.469109416e-01    2.249076217e-01
       13009375    5.481668711e-01    2.189828604e-01
       13011250    5.496371388e-01    2.131063640e-01
       13013125    5.507967472e-01    2.071889788e-01
       13015000    5.521343350e-01    2.011858672e-01
       13016875    5.531437397e-01    1.951134950e-01
       13018750    5.542947650e-01    1.889846474e-01
       13020625    5.554049611e-01    1.830087006e-01
       13022500    5.563771129e-01    1.770196110e-01
       13024375    5.572858453e-01    1.709499955e-01
       13026250    5.580055714e-01    1.649801731e-01
       13028125    5.588795543e-01    1.587756723e-01
       13030000    5.596567392e-01    1.527444720e-01
       13031875    5.602817535e-01    1.465329081e-01
       13033750    5.609949827e-01    1.404806823e-01
       13035625    5.614389777e-01    1.343096942e-01
       13037500    5.618225932e-01    1.281597018e-01
       13039375    5.622807145e-01    1.220673025e-01
       13041250    5.627521276e-01    1.157982275e-01
       13043125    5.630147457e-01    1.097830832e-01
       13045000    5.631663203e-01    1.033806950e-01
       13046875    5.632681251e-01    9.716463834e-02
       13048750    5.635226369e-01    9.099551290e-02
       13050625    5.634590983e-01    8.473263681e-02
       13052500    5.635158420e-01    7.865256816e-02
       13054375    5.631778240e-01    7.247481495e-02
       13056250    5.631895065e-01    6.602829695e-02
       13058125    5.629526973e-01    5.966594815e-02
       13060000    5.622981191e-01    5.358627066e-02
       13061875    5.623623133e-01    4.731798917e-02
       13063750    5.618114471e-01    4.100606591e-02
       13065625    5.614150763e-01    3.496350721e-02
       13067500    5.606514215e-01    2.871831134e-02
       13069375    5.601205826e-01    2.248907275e-02
       13071250    5.594227910e-01    1.642586477e-02
       13073125    5.585185289e-01    9.854543023e-03
       13075000    5.578089356e-01    3.894757479e-03
       13076875    5.570006371e-01   -2.377355471e-03
       13078750    5.558348298e-01   -8.612154052e-03
       13080625    5.553185940e-01   -1.455025934e-02
       13082500    5.537965894e-01   -1.935416460e-02
       13084375    5.527793765e-01   -2.686091699e-02
       13086250    5.512774587e-01   -3.309703618e-02
       13088125    5.503084660e-01   -3.936890140e-02
       13090000    5.486311316e-01   -4.591456428e-02
       13091875    5.474110842e-01   -5.211248249e-02
       13093750    5.461305976e-01   -5.837864801e-02
       13095625    5.442332029e-01   -6.424415112e-02
       13097500    5.424572229e-01   -7.035340369e-02
       13099375    5.409014225e-01   -7.639686018e-02
       13101250    5.389680862e-01   -8.250197023e-02
       13103125    5.372418761e-01   -8.848446608e-02
       13105000    5.353677869e-01   -9.472694248e-02
       13106875    5.332659483e-01   -1.006676778e-01
       13108750    5.312705636e-01   -1.067249030e-01
       13110625    5.292824507e-01   -1.126573011e-01
       13112500    5.269899964e-01   -1.188154444e-01
       13114375    5.248838067e-01   -1.247526184e-01
       13116250    5.225022435e-01   -1.305784136e-01
       13118125    5.200344324e-01   -1.364593953e-01
       13120000    5.176799893e-01   -1.424714029e-01
       13121875    5.154093504e-01   -1.482158154e-01
       13123750    5.125644207e-01   -1.541490704e-01
       13125625    5.099875927e-01   -1.598060727e-01
       13127500    5.072736144e-01   -1.656362861e-01
       13129375    5.045266151e-01   -1.715494543e-01
       13131250    5.015582442e-01   -1.773780435e-01
       13133125    4.989635050e-01   -1.828461438e-01
       13135000    4.955367446e-01   -1.887792796e-01
       13136875    4.926559031e-01   -1.941600740e-01
       13138750    4.890120327e-01   -2.003619969e-01
       13140625    4.862784743e-01   -2.059651166e-01
       13142500    4.829092324e-01   -2.110467851e-01
       13144375    4.791419804e-01   -2.171738297e-01
       13146250    4.764211476e-01   -2.226918489e-01
       13148125    4.736848474e-01   -2.276380062e-01
       13150000    4.697936177e-01   -2.335214168e-01
       13151875    4.661040902e-01   -2.388287336e-01
       13153750    4.623852968e-01   -2.442019880e-01
       13155625    4.586358368e-01   -2.495052069e-01
       13157500    4.550889432e-01   -2.549484968e-01
       13159375    4.512050152e-01   -2.600822151e-01
       13161250    4.474078417e-01   -2.653493881e-01
       13163125    4.435237050e-01   -2.705013454e-01
       13165000    4.394031465e-01   -2.756870985e-01
       13166875    4.354707599e-01   -2.806561589e-01
       13168750    4.311868846e-01   -2.858918011e-01
       13170625    4.270515740e-01   -2.907091081e-01
       13172500    4.229036272e-01   -2.958488166e-01
       13174375    4.185187817e-01   -3.007084727e-01
       13176250    4.142454863e-01   -3.057365716e-01
       13178125    4.096048176e-01   -3.105630577e-01
       13180000    4.052848816e-01   -3.151060641e-01
       13181875    4.007157981e-01   -3.201072216e-01
       13183750    3.962005377e-01   -3.247006834e-01
       13185625    3.913584948e-01   -3.294190466e-01
       13187500    3.866728842e-01   -3.339937031e-01
       13189375    3.820120990e-01   -3.383542299e-01
       13191250    3.771863878e-01   -3.427941203e-01
       13193125    3.722428679e-01   -3.472968042e-01
       13195000    3.673166931e-01   -3.516703248e-01
       13196875    3.621955216e-01   -3.559494019e-01
       13198750    3.572915196e-01   -3.601694405e-01
       13200625    3.520908058e-01   -3.643997908e-01
       13202500    3.471188545e-01   -3.686688244e-01
       13204375    3.418017924e-01   -3.727070391e-01
       13206250    3.368370235e-01   -3.765582442e-01
       13208125    3.314869106e-01   -3.805714846e-01
       13210000    3.260622621e-01   -3.845801353e-01
       13211875    3.206872344e-01   -3.883853853e-01
       13213750    3.151257038e-01   -3.921427131e-01
       13215625    3.095920086e-01   -3.958904147e-01
       13217500    3.040845096e-01   -3.994383514e-01
       13219375    2.985004187e-01   -4.032114744e-01
       13221250    2.927282751e-01   -4.067018032e-01
       13223125    2.871249020e-01   -4.101680517e-01
       13225000    2.814088166e-01   -4.137099087e-01
       13226875    2.756511271e-01   -4.168930054e-01
       13228750    2.698555887e-01   -4.202203453e-01
       13230625    2.639175653e-01   -4.232464433e-01
       13232500    2.581295371e-01   -4.263774455e-01
       13234375    2.520754039e-01   -4.295219183e-01
       13236250    2.462366521e-01   -4.326304793e-01
       13238125    2.400078475e-01   -4.352525175e-01
       13240000    2.340232283e-01   -4.381017089e-01
       13241875    2.280251384e-01   -4.408874810e-01
       13243750    2.219390571e-01   -4.437245429e-01
       13245625    2.156941593e-01   -4.463853538e-01
       13247500    2.097026110e-01   -4.488693774e-01
       13249375    2.032373101e-01   -4.512054026e-01
       13251250    1.970929503e-01   -4.536681175e-01
       13253125    1.905983835e-01   -4.561668038e-01
       13255000    1.842203885e-01   -4.581124783e-01
       13256875    1.780394316e-01   -4.602685571e-01
       13258750    1.717063785e-01   -4.625900090e-01
       13260625    1.652439237e-01   -4.643828869e-01
       13262500    1.587786078e-01   -4.663760364e-01
       13264375    1.524365097e-01   -4.682895839e-01
       13266250    1.458541602e-01   -4.699316621e-01
       13268125    1.394299418e-01   -4.718746245e-01
       13270000    1.328240335e-01   -4.733791351e-01
       13271875    1.261703372e-01   -4.750741124e-01
       13273750    1.196011007e-01   -4.762352407e-01
       13275625    1.131027564e-01   -4.776759148e-01
       13277500    1.059324369e-01   -4.791395068e-01
       13279375    9.971688688e-02   -4.801128805e-01
       13281250    9.302855283e-02   -4.813072979e-01
       13283125    8.645484596e-02   -4.821546376e-01
       13285000    7.994329929e-02   -4.834778905e-01
       13286875    7.340480387e-02   -4.842927754e-01
       13288750    6.623077393e-02   -4.850959182e-01
       13290625    5.984325707e-02   -4.857453704e-01
       13292500    5.322038382e-02   -4.862783551e-01
       13294375    4.646629095e-02   -4.868118167e-01
       13296250    3.997772932e-02   -4.873141944e-01
       13298125    3.296503797e-02   -4.876275063e-01
       13300000    2.611349523e-02   -4.879861176e-01
       13301875    1.950294711e-02   -4.884349704e-01
       13303750    1.278826501e-02   -4.882544577e-01
       13305625    5.903701298e-03   -4.884150028e-01
       13307500   -7.964146207e-04   -4.882018864e-01
       13309375   -7.490559947e-03   -4.882898033e-01
       13311250   -1.445027534e-02   -4.880954623e-01
       13313125   -2.111083828e-02   -4.877500534e-01
       13315000   -2.789151855e-02   -4.873461127e-01
       13316875   -3.456212208e-02   -4.867466390e-01
       13318750   -4.136377946e-02   -4.862350821e-01
       13320625   -4.802208766e-02   -4.856230617e-01
       13322500   -5.500112474e-02   -4.849339724e-01
       13324375   -6.144730374e-02   -4.841459692e-01
       13326250   -6.812310964e-02   -4.834320545e-01
       13328125   -7.479681075e-02   -4.823161364e-01
       13330000   -8.151743561e-02   -4.813334048e-01
       13331875   -8.813601732e-02   -4.799960256e-01
       13333750   -9.477136284e-02   -4.788997471e-01
       13335625   -1.012472659e-01   -4.774697721e-01
       13337500   -1.079235375e-01   -4.760940671e-01
       13339375   -1.144975498e-01   -4.746523201e-01
       13341250   -1.210519746e-01   -4.730989039e-01
       13343125   -1.275674850e-01   -4.714733958e-01
       13345000   -1.342488527e-01   -4.699432552e-01
       13346875   -1.408557892e-01   -4.680334926e-01
       13348750   -1.473065615e-01   -4.659597874e-01
       13350625   -1.534195393e-01   -4.640353322e-01
       13352500   -1.602948159e-01   -4.619931877e-01
       13354375   -1.663518250e-01   -4.599355161e-01
       13356250   -1.727885306e-01   -4.576407373e-01
       13358125   -1.790482849e-01   -4.553551972e-01
       13360000   -1.851977259e-01   -4.528913200e-01
       13361875   -1.915645152e-01   -4.505687356e-01
       13363750   -1.979181021e-01   -4.480155706e-01
       13365625   -2.043713778e-01   -4.455215335e-01
       13367500   -2.103146464e-01   -4.428507388e-01
       13369375   -2.166260630e-01   -4.399389029e-01
       13371250   -2.225929052e-01   -4.370610118e-01
       13373125   -2.283955216e-01   -4.344738126e-01
       13375000   -2.347639501e-01   -4.313723743e-01
       13376875   -2.406424731e-01   -4.284214377e-01
       13378750   -2.465414256e-01   -4.251291454e-01
       13380625   -2.526953816e-01   -4.218092859e-01
       13382500   -2.584618330e-01   -4.185341895e-01
       13384375   -2.641637027e-01   -4.154728651e-01
       13386250   -2.697615623e-01   -4.118110836e-01
       13388125   -2.753947973e-01   -4.081651568e-01
       13390000   -2.809581757e-01   -4.043347239e-01
       13391875   -2.867006361e-01   -4.009132087e-01
       13393750   -2.923597693e-01   -3.972366154e-01
       13395625   -2.974411845e-01   -3.944951892e-01
       13397500   -3.034563065e-01   -3.896177709e-01
       13399375   -3.089286983e-01   -3.858745694e-01
       13401250   -3.137469292e-01   -3.837201595e-01
       13403125   -3.201762736e-01   -3.778203726e-01
       13405000   -3.254305124e-01   -3.730130196e-01
       13406875   -3.297865093e-01   -3.695467710e-01
       13408750   -3.347426355e-01   -3.649979830e-01
       13410625   -3.400617242e-01   -3.609160781e-01
       13412500   -3.448655009e-01   -3.564674258e-01
       13414375   -3.502191603e-01   -3.521873653e-01
       13416250   -3.551374674e-01   -3.475562334e-01
       13418125   -3.601326644e-01   -3.429572582e-01
       13420000   -3.648302257e-01   -3.384913802e-01
       13421875   -3.698842824e-01   -3.337757587e-01
       13423750   -3.743162155e-01   -3.289775252e-01
       13425625   -3.787707984e-01   -3.242494464e-01
       13427500   -3.831981122e-01   -3.194132447e-01
       13429375   -3.877122104e-01   -3.145942092e-01
       13431250   -3.921495676e-01   -3.096773624e-01
       13433125   -3.964542150e-01   -3.044933677e-01
       13435000   -4.008664191e-01   -2.997101247e-01
       13436875   -4.050503969e-01   -2.945463955e-01
       13438750   -4.093438089e-01   -2.891950309e-01
       13440625   -4.136172831e-01   -2.840139270e-01
       13442500   -4.171876013e-01   -2.788264751e-01
       13444375   -4.210051596e-01   -2.736991644e-01
       13446250   -4.248657823e-01   -2.683747411e-01
       13448125   -4.287169874e-01   -2.631761432e-01
       13450000   -4.322091937e-01   -2.576271892e-01
       13451875   -4.359178245e-01   -2.523331046e-01
       13453750   -4.394820929e-01   -2.467590421e-01
       13455625   -4.431800544e-01   -2.410522401e-01
       13457500   -4.466947317e-01   -2.352405936e-01
       13459375   -4.504027069e-01   -2.297661602e-01
       13461250   -4.535273910e-01   -2.241211683e-01
       13463125   -4.566958547e-01   -2.183464617e-01
       13465000   -4.599021077e-01   -2.128960192e-01
       13466875   -4.625576437e-01   -2.069048285e-01
       13468750   -4.657202661e-01   -2.013264596e-01
       13470625   -4.686281681e-01   -1.954746246e-01
       13472500   -4.714984894e-01   -1.894804090e-01
       13474375   -4.743533432e-01   -1.835782081e-01
       13476250   -4.768887162e-01   -1.776029915e-01
       13478125   -4.797497690e-01   -1.717755049e-01
       13480000   -4.822755158e-01   -1.656977981e-01
       13481875   -4.846791923e-01   -1.594593078e-01
       13483750   -4.870212674e-01   -1.538774669e-01
       13485625   -4.891858101e-01   -1.477938890e-01
       13487500   -4.912998974e-01   -1.419613063e-01
       13489375   -4.935318530e-01   -1.359853894e-01
       13491250   -4.954121709e-01   -1.298656315e-01
       13493125   -4.976105392e-01   -1.237010658e-01
       13495000   -4.996434450e-01   -1.173139736e-01
       13496875   -5.015256405e-01   -1.111979932e-01
       13498750   -5.032233596e-01   -1.048301607e-01
       13500625   -5.046185255e-01   -9.848324209e-02
       13502500   -5.064281225e-01   -9.259315580e-02
       13504375   -5.080240965e-01   -8.633719385e-02
       13506250   -5.096560121e-01   -8.021019399e-02
       13508125   -5.106392503e-01   -7.384590805e-02
       13510000   -5.118960142e-01   -6.757779419e-02
       13511875   -5.132252574e-01   -6.161722168e-02
       13513750   -5.144960880e-01   -5.527586490e-02
       13515625   -5.155471563e-01   -4.850618541e-02
       13517500   -5.165879130e-01   -4.221747443e-02
       13519375   -5.173091292e-01   -3.588065878e-02
       13521250   -5.182179809e-01   -2.979485318e-02
       13523125   -5.189874768e-01   -2.360299416e-02
       13525000   -5.197866559e-01   -1.748728380e-02
       13526875   -5.203461051e-01   -1.119758002e-02
       13528750   -5.208622217e-01   -5.092619918e-03
       13530625   -5.213031769e-01    1.251988811e-03
       13532500   -5.216666460e-01    7.365311962e-03
       13534375   -5.216420889e-01    1.395799778e-02
       13536250   -5.221234560e-01    1.996427774e-02
       13538125   -5.220985413e-01    2.632459253e-02
       13540000   -5.222479701e-01    3.266615048e-02
       13541875   -5.223172903e-01    3.892669454e-02
       13543750   -5.219022036e-01    4.525449499e-02
       13545625   -5.219742060e-01    5.113475397e-02
       13547500   -5.217629075e-01    5.743594840e-02
       13549375   -5.216022730e-01    6.363953650e-02
       13551250   -5.212728977e-01    6.988741457e-02
       13553125   -5.205381513e-01    7.634668797e-02
       13555000   -5.201820731e-01    8.250585943e-02
       13556875   -5.194456577e-01    8.882480115e-02
       13558750   -5.184653401e-01    9.509106725e-02
       13560625   -5.183480978e-01    1.012033001e-01
       13562500   -5.174086690e-01    1.067042872e-01
       13564375   -5.162127018e-01    1.130042449e-01
       13566250   -5.154805779e-01    1.189521030e-01
       13568125   -5.142527819e-01    1.251396239e-01
       13570000   -5.130690932e-01    1.312223375e-01
       13571875   -5.118292570e-01    1.372725517e-01
       13573750   -5.105269551e-01    1.431720555e-01
       13575625   -5.094992518e-01    1.489983201e-01
       13577500   -5.082541108e-01    1.550458819e-01
       13579375   -5.069282651e-01    1.611216962e-01
       13581250   -5.054314733e-01    1.667520553e-01
       13583125   -5.036647916e-01    1.727257371e-01
       13585000   -5.021713376e-01    1.784326136e-01
       13586875   -5.002681017e-01    1.843278855e-01
       13588750   -4.983097315e-01    1.901320517e-01
       13590625   -4.964907765e-01    1.958027929e-01
       13592500   -4.947096407e-01    2.014490068e-01
       13594375   -4.930481017e-01    2.070833445e-01
       13596250   -4.910244644e-01    2.128200531e-01
       13598125   -4.888072610e-01    2.183771729e-01
       13600000   -4.870179892e-01    2.240418494e-01
       13601875   -4.848748147e-01    2.295660526e-01
       13603750   -4.825370610e-01    2.351230681e-01
       13605625   -4.802451432e-01    2.405845225e-01
       13607500   -4.775510430e-01    2.460553199e-01
       13609375   -4.753465652e-01    2.514038086e-01
       13611250   -4.726473391e-01    2.568081915e-01
       13613125   -4.700962007e-01    2.622351944e-01
       13615000   -4.677278399e-01    2.675249577e-01
       13616875   -4.649338722e-01    2.729555964e-01
       13618750   -4.626720548e-01    2.781633437e-01
       13620625   -4.598464966e-01    2.835099399e-01
       13622500   -4.568790793e-01    2.886430919e-01
       13624375   -4.540396631e-01    2.937079072e-01
       13626250   -4.508921206e-01    2.987008095e-01
       13628125   -4.479267895e-01    3.034884334e-01
       13630000   -4.449456036e-01    3.085839748e-01
       13631875   -4.415709078e-01    3.136523664e-01
       13633750   -4.387845397e-01    3.188420534e-01
       13635625   -4.356658459e-01    3.237304688e-01
       13637500   -4.327615798e-01    3.285745382e-01
       13639375   -4.292851090e-01    3.334587216e-01
       13641250   -4.259146154e-01    3.381365836e-01
       13643125   -4.228236675e-01    3.429726362e-01
       13645000   -4.192707539e-01    3.475435972e-01
       13646875   -4.158611596e-01    3.521770537e-01
       13648750   -4.122605920e-01    3.566716909e-01
       13650625   -4.084365368e-01    3.610283732e-01
       13652500   -4.052226841e-01    3.655535579e-01
       13654375   -4.015971422e-01    3.703444600e-01
       13656250   -3.978297412e-01    3.747885227e-01
       13658125   -3.945375383e-01    3.793605864e-01
       13660000   -3.903796971e-01    3.837919831e-01
       13661875   -3.868097365e-01    3.882154524e-01
       13663750   -3.828650117e-01    3.922109008e-01
       13665625   -3.786955178e-01    3.964002728e-01
       13667500   -3.750267923e-01    4.005306363e-01
       13669375   -3.711705208e-01    4.046955109e-01
       13671250   -3.672891259e-01    4.087350368e-01
       13673125   -3.632184267e-01    4.127973318e-01
       13675000   -3.588368893e-01    4.166853130e-01
       13676875   -3.550497890e-01    4.208540618e-01
       13678750   -3.509411514e-01    4.249385595e-01
       13680625   -3.467207849e-01    4.287183881e-01
       13682500   -3.424746096e-01    4.325649142e-01
       13684375   -3.380524814e-01    4.361605942e-01
       13686250   -3.340448737e-01    4.398305118e-01
