! NanoVNA-App
! Date: 2025-03-10 22:18:33
! Start: 25MHz Stop: 30MHz Points: 1601
! S-Parameter data: F S11
# Hz S RI R 50
!     Frequency           S11_Real           S11_Imag
       25000000    4.538782239e-01   -5.703517199e-01
       25003125    4.487285614e-01   -5.732361674e-01
       25006250    4.462104440e-01   -5.757871270e-01
       25009375    4.394312203e-01   -5.826863050e-01
       25012500    4.322600961e-01   -5.833029151e-01
       25015625    4.274022579e-01   -5.870187283e-01
       25018750    4.226514399e-01   -5.920007229e-01
       25021875    4.183757305e-01   -5.949729085e-01
       25025000    4.124062657e-01   -5.971996784e-01
       25028125    4.085152745e-01   -5.993218422e-01
       25031250    4.026772380e-01   -6.044853926e-01
       25034375    3.971689641e-01   -6.077206135e-01
       25037500    3.920189142e-01   -6.109187007e-01
       25040625    3.866283298e-01   -6.140739918e-01
       25043750    3.809448481e-01   -6.178418994e-01
       25046875    3.763384223e-01   -6.197733879e-01
       25050000    3.697870076e-01   -6.240118742e-01
       25053125    3.649728000e-01   -6.262038946e-01
       25056250    3.600761294e-01   -6.294441223e-01
       25059375    3.542030752e-01   -6.323593259e-01
       25062500    3.484405577e-01   -6.348396540e-01
       25065625    3.426469564e-01   -6.375325322e-01
       25068750    3.372476101e-01   -6.403748989e-01
       25071875    3.315471411e-01   -6.430230737e-01
       25075000    3.259197176e-01   -6.459178925e-01
       25078125    3.203113675e-01   -6.483436227e-01
       25081250    3.145676851e-01   -6.509230137e-01
       25084375    3.086947203e-01   -6.533161998e-01
       25087500    3.029411137e-01   -6.558690071e-01
       25090625    2.971236706e-01   -6.582913399e-01
       25093750    2.912772596e-01   -6.605976820e-01
       25096875    2.854826152e-01   -6.628943086e-01
       25100000    2.795137465e-01   -6.651337743e-01
       25103125    2.736773193e-01   -6.674358845e-01
       25106250    2.677675486e-01   -6.694710851e-01
       25109375    2.618325651e-01   -6.716091633e-01
       25112500    2.556909919e-01   -6.737037897e-01
       25115625    2.497693151e-01   -6.755541563e-01
       25118750    2.437344193e-01   -6.775560379e-01
       25121875    2.377596796e-01   -6.793837547e-01
       25125000    2.317545861e-01   -6.812097430e-01
       25128125    2.255115658e-01   -6.831106544e-01
       25131250    2.195293903e-01   -6.847221255e-01
       25134375    2.133150399e-01   -6.865051389e-01
       25137500    2.072501779e-01   -6.881036758e-01
       25140625    2.010525316e-01   -6.895878911e-01
       25143750    1.948007792e-01   -6.912244558e-01
       25146875    1.885389835e-01   -6.925085187e-01
       25150000    1.824663430e-01   -6.939440370e-01
       25153125    1.762246490e-01   -6.953399777e-01
       25156250    1.699642539e-01   -6.967439055e-01
       25159375    1.635447443e-01   -6.979207993e-01
       25162500    1.573523730e-01   -6.989696026e-01
       25165625    1.511033624e-01   -7.001583576e-01
       25168750    1.446772218e-01   -7.012459040e-01
       25171875    1.383496225e-01   -7.022628188e-01
       25175000    1.319847107e-01   -7.031340599e-01
       25178125    1.255792677e-01   -7.040760517e-01
       25181250    1.191931143e-01   -7.049305439e-01
       25184375    1.128069237e-01   -7.057166696e-01
       25187500    1.063974723e-01   -7.065055370e-01
       25190625    9.999004006e-02   -7.070878744e-01
       25193750    9.366748482e-02   -7.077392340e-01
       25196875    8.679842949e-02   -7.076778412e-01
       25200000    8.133182675e-02   -7.047817111e-01
       25203125    7.392988354e-02   -7.091923356e-01
       25206250    6.964887679e-02   -7.074257731e-01
       25209375    5.993950367e-02   -7.113934755e-01
       25212500    5.664692447e-02   -7.113583088e-01
       25215625    4.881926998e-02   -7.106474638e-01
       25218750    4.101935402e-02   -7.119623423e-01
       25221875    3.579284996e-02   -7.103258967e-01
       25225000    2.834930271e-02   -7.122276425e-01
       25228125    2.242556028e-02   -7.104851007e-01
       25231250    1.578430273e-02   -7.104888558e-01
       25234375    9.210408665e-03   -7.103817463e-01
       25237500    2.621670486e-03   -7.100244164e-01
       25240625   -3.897778224e-03   -7.097656131e-01
       25243750   -1.030632667e-02   -7.095206976e-01
       25246875   -1.690210029e-02   -7.090880275e-01
       25250000   -2.344132960e-02   -7.086216211e-01
       25253125   -2.996628173e-02   -7.081202269e-01
       25256250   -3.660503402e-02   -7.075201869e-01
       25259375   -4.299773648e-02   -7.069388032e-01
       25262500   -4.964785650e-02   -7.061595917e-01
       25265625   -5.624662340e-02   -7.052528858e-01
       25268750   -6.273033470e-02   -7.044726014e-01
       25271875   -6.928344816e-02   -7.037537694e-01
       25275000   -7.582519948e-02   -7.027091384e-01
       25278125   -8.238070458e-02   -7.016376853e-01
       25281250   -8.873832226e-02   -7.006256580e-01
       25284375   -9.532056004e-02   -6.993330121e-01
       25287500   -1.019249856e-01   -6.983209848e-01
       25290625   -1.083415672e-01   -6.969562769e-01
       25293750   -1.149620041e-01   -6.957029104e-01
       25296875   -1.213731095e-01   -6.942934394e-01
       25300000   -1.279754788e-01   -6.929349303e-01
       25303125   -1.343081445e-01   -6.912281513e-01
       25306250   -1.409088820e-01   -6.897691488e-01
       25309375   -1.473751366e-01   -6.880668998e-01
       25312500   -1.536403596e-01   -6.863607168e-01
       25315625   -1.601806432e-01   -6.845324039e-01
       25318750   -1.666550040e-01   -6.826647520e-01
       25321875   -1.730538607e-01   -6.808985472e-01
       25325000   -1.793845296e-01   -6.788290739e-01
       25328125   -1.857482940e-01   -6.765210629e-01
       25331250   -1.924423426e-01   -6.748039722e-01
       25334375   -1.984083802e-01   -6.725806594e-01
       25337500   -2.047711015e-01   -6.703743935e-01
       25340625   -2.112015039e-01   -6.682081819e-01
       25343750   -2.174696475e-01   -6.658704281e-01
       25346875   -2.237527221e-01   -6.634255648e-01
       25350000   -2.299712747e-01   -6.610037088e-01
       25353125   -2.362261266e-01   -6.583908200e-01
       25356250   -2.425261289e-01   -6.558596492e-01
       25359375   -2.486452013e-01   -6.532648206e-01
       25362500   -2.548834980e-01   -6.505163908e-01
       25365625   -2.609648108e-01   -6.478174925e-01
       25368750   -2.671845853e-01   -6.447907090e-01
       25371875   -2.731767893e-01   -6.420463324e-01
       25375000   -2.792560160e-01   -6.390890479e-01
       25378125   -2.852839530e-01   -6.360920072e-01
       25381250   -2.914361656e-01   -6.329923868e-01
       25384375   -2.973122597e-01   -6.299394369e-01
       25387500   -3.033462167e-01   -6.267454028e-01
       25390625   -3.094036281e-01   -6.235169172e-01
       25393750   -3.152960539e-01   -6.202012897e-01
       25396875   -3.211480379e-01   -6.168179512e-01
       25400000   -3.270411491e-01   -6.133988500e-01
       25403125   -3.327594399e-01   -6.100702286e-01
       25406250   -3.386082053e-01   -6.064508557e-01
       25409375   -3.443089724e-01   -6.029621363e-01
       25412500   -3.502871096e-01   -6.001858115e-01
       25415625   -3.562255800e-01   -5.950123072e-01
       25418750   -3.619818985e-01   -5.934650302e-01
       25421875   -3.664614260e-01   -5.861887932e-01
       25425000   -3.732626140e-01   -5.845480561e-01
       25428125   -3.785106838e-01   -5.799576640e-01
       25431250   -3.835030496e-01   -5.762883425e-01
       25434375   -3.890374601e-01   -5.714759827e-01
       25437500   -3.947821856e-01   -5.678749084e-01
       25440625   -4.001798630e-01   -5.636615157e-01
       25443750   -4.059552252e-01   -5.593196154e-01
       25446875   -4.112736583e-01   -5.540836453e-01
       25450000   -4.128007591e-01   -5.496934652e-01
       25453125   -4.212387204e-01   -5.477928519e-01
       25456250   -4.171434939e-01   -5.389986634e-01
       25459375   -4.488628805e-01   -5.437197089e-01
       25462500   -4.193746448e-01   -5.168740153e-01
       25465625   -4.164633751e-01   -5.591980219e-01
       25468750   -4.495944977e-01   -5.238053799e-01
       25471875   -4.509060681e-01   -5.134928823e-01
       25475000   -4.573240876e-01   -5.150192380e-01
       25478125   -4.617061019e-01   -5.090969205e-01
       25481250   -4.663204551e-01   -5.049678683e-01
       25484375   -4.716616869e-01   -4.999937117e-01
       25487500   -4.767664075e-01   -4.954274297e-01
       25490625   -4.812612236e-01   -4.904161990e-01
       25493750   -4.859875739e-01   -4.861910641e-01
       25496875   -4.909084141e-01   -4.794882238e-01
       25500000   -4.937272370e-01   -4.752975404e-01
       25503125   -5.001943707e-01   -4.681821764e-01
       25506250   -5.053426623e-01   -4.628264308e-01
       25509375   -5.082024932e-01   -4.590379894e-01
       25512500   -5.127034187e-01   -4.539922178e-01
       25515625   -5.167667270e-01   -4.474133253e-01
       25518750   -5.217047930e-01   -4.431742430e-01
       25521875   -5.258952975e-01   -4.378218949e-01
       25525000   -5.299476981e-01   -4.323859215e-01
       25528125   -5.341149569e-01   -4.268514514e-01
       25531250   -5.381993055e-01   -4.212317765e-01
       25534375   -5.422849059e-01   -4.156420827e-01
       25537500   -5.462109447e-01   -4.099853039e-01
       25540625   -5.501865149e-01   -4.042783380e-01
       25543750   -5.539720058e-01   -3.985252082e-01
       25546875   -5.577504635e-01   -3.928955793e-01
       25550000   -5.615665913e-01   -3.869891167e-01
       25553125   -5.651281476e-01   -3.812265098e-01
       25556250   -5.686727762e-01   -3.751814961e-01
       25559375   -5.723981261e-01   -3.694657385e-01
       25562500   -5.757535100e-01   -3.636042476e-01
       25565625   -5.793222785e-01   -3.575194478e-01
       25568750   -5.827264190e-01   -3.514167368e-01
       25571875   -5.861096978e-01   -3.453796506e-01
       25575000   -5.894098282e-01   -3.393101692e-01
       25578125   -5.925599337e-01   -3.333063126e-01
       25581250   -5.957520008e-01   -3.271673322e-01
       25584375   -5.988526940e-01   -3.209233284e-01
       25587500   -6.018769741e-01   -3.147180080e-01
       25590625   -6.048346162e-01   -3.085415065e-01
       25593750   -6.076310277e-01   -3.021409512e-01
       25596875   -6.105800271e-01   -2.959026694e-01
       25600000   -6.135560274e-01   -2.890745997e-01
       25603125   -6.162776947e-01   -2.831695974e-01
       25606250   -6.183997393e-01   -2.769193351e-01
       25609375   -6.211864948e-01   -2.703869939e-01
       25612500   -6.237833500e-01   -2.640499771e-01
       25615625   -6.262831688e-01   -2.575378120e-01
       25618750   -6.286144257e-01   -2.511897087e-01
       25621875   -6.310793161e-01   -2.446413040e-01
       25625000   -6.333068013e-01   -2.380841523e-01
       25628125   -6.355288625e-01   -2.316602170e-01
       25631250   -6.376388073e-01   -2.250509113e-01
       25634375   -6.397189498e-01   -2.184890658e-01
       25637500   -6.418671012e-01   -2.118739188e-01
       25640625   -6.437605619e-01   -2.052638680e-01
       25643750   -6.455832720e-01   -1.985705197e-01
       25646875   -6.474397779e-01   -1.920242012e-01
       25650000   -6.491558552e-01   -1.853658259e-01
       25653125   -6.507986188e-01   -1.786197722e-01
       25656250   -6.525055766e-01   -1.719157845e-01
       25659375   -6.539889574e-01   -1.651842743e-01
       25662500   -6.554401517e-01   -1.585201323e-01
       25665625   -6.569351554e-01   -1.517807096e-01
       25668750   -6.582606435e-01   -1.450123787e-01
       25671875   -6.595695615e-01   -1.382053047e-01
       25675000   -6.607188582e-01   -1.314477473e-01
       25678125   -6.619912386e-01   -1.246313974e-01
       25681250   -6.629592776e-01   -1.178150624e-01
       25684375   -6.640064716e-01   -1.110889539e-01
       25687500   -6.650202274e-01   -1.042340547e-01
       25690625   -6.659208536e-01   -9.747861326e-02
       25693750   -6.667172313e-01   -9.053627402e-02
       25696875   -6.674745083e-01   -8.375767618e-02
       25700000   -6.681524515e-01   -7.684473693e-02
       25703125   -6.687117219e-01   -7.008793950e-02
       25706250   -6.692355275e-01   -6.321809441e-02
       25709375   -6.697165966e-01   -5.639994517e-02
       25712500   -6.700997949e-01   -4.947558045e-02
       25715625   -6.705765724e-01   -4.262045026e-02
       25718750   -6.708041430e-01   -3.574739397e-02
       25721875   -6.709562540e-01   -2.885900065e-02
       25725000   -6.711206436e-01   -2.208787575e-02
       25728125   -6.711370349e-01   -1.527999341e-02
       25731250   -6.711110473e-01   -8.377563208e-03
       25734375   -6.710547209e-01   -1.521294587e-03
       25737500   -6.709404588e-01    5.258227699e-03
       25740625   -6.707379818e-01    1.212170720e-02
       25743750   -6.705256701e-01    1.893726178e-02
       25746875   -6.703304648e-01    2.587238327e-02
       25750000   -6.697453260e-01    3.253966570e-02
       25753125   -6.693046093e-01    3.933599964e-02
       25756250   -6.689085364e-01    4.624347389e-02
       25759375   -6.681153774e-01    5.320123583e-02
       25762500   -6.675033569e-01    5.992107093e-02
       25765625   -6.667323112e-01    6.650026143e-02
       25768750   -6.659331322e-01    7.349172980e-02
       25771875   -6.652178168e-01    8.022616059e-02
       25775000   -6.642813087e-01    8.688077331e-02
       25778125   -6.631346345e-01    9.365713596e-02
       25781250   -6.620910168e-01    1.002447680e-01
       25784375   -6.609827876e-01    1.071380302e-01
       25787500   -6.597805023e-01    1.138227955e-01
       25790625   -6.585280895e-01    1.204602942e-01
       25793750   -6.572267413e-01    1.271108240e-01
       25796875   -6.558096409e-01    1.338351518e-01
       25800000   -6.544001698e-01    1.404307634e-01
       25803125   -6.529602408e-01    1.470016837e-01
       25806250   -6.513823867e-01    1.536158919e-01
       25809375   -6.496553421e-01    1.601283550e-01
       25812500   -6.479699612e-01    1.667502970e-01
       25815625   -6.462882757e-01    1.732403338e-01
       25818750   -6.442954540e-01    1.797311604e-01
       25821875   -6.423823237e-01    1.861676872e-01
       25825000   -6.405628920e-01    1.927204430e-01
       25828125   -6.386156082e-01    1.990751028e-01
       25831250   -6.363739371e-01    2.055300623e-01
       25834375   -6.342963576e-01    2.120326608e-01
       25837500   -6.321601868e-01    2.183358520e-01
       25840625   -6.298869848e-01    2.246516645e-01
       25843750   -6.274999380e-01    2.309728563e-01
       25846875   -6.250730157e-01    2.372986227e-01
       25850000   -6.227528453e-01    2.435187995e-01
       25853125   -6.202215552e-01    2.498214245e-01
       25856250   -6.176435947e-01    2.560820580e-01
       25859375   -6.151357293e-01    2.622659504e-01
       25862500   -6.124269366e-01    2.684494853e-01
       25865625   -6.095974445e-01    2.744975984e-01
       25868750   -6.068933606e-01    2.805988193e-01
       25871875   -6.039865017e-01    2.865962088e-01
       25875000   -6.010996699e-01    2.927567959e-01
       25878125   -5.981889963e-01    2.985650301e-01
       25881250   -5.952215195e-01    3.046284914e-01
       25884375   -5.921083093e-01    3.105873764e-01
       25887500   -5.890470743e-01    3.163848817e-01
       25890625   -5.857668519e-01    3.222226501e-01
       25893750   -5.825510621e-01    3.280771673e-01
       25896875   -5.793452263e-01    3.338841200e-01
       25900000   -5.760024786e-01    3.397271335e-01
       25903125   -5.725662708e-01    3.453975618e-01
       25906250   -5.691450238e-01    3.510327339e-01
       25909375   -5.655817389e-01    3.566564322e-01
       25912500   -5.620670319e-01    3.623073995e-01
       25915625   -5.585235357e-01    3.679099977e-01
       25918750   -5.549234748e-01    3.734604120e-01
       25921875   -5.511273146e-01    3.789713383e-01
       25925000   -5.474504828e-01    3.843753338e-01
       25928125   -5.436241627e-01    3.897522390e-01
       25931250   -5.398011208e-01    3.951506615e-01
       25934375   -5.359157324e-01    4.004646540e-01
       25937500   -5.319288969e-01    4.057172537e-01
       25940625   -5.280109644e-01    4.110223055e-01
       25943750   -5.239832401e-01    4.162302613e-01
       25946875   -5.198372006e-01    4.213606417e-01
       25950000   -5.157691836e-01    4.265849888e-01
       25953125   -5.115323067e-01    4.315859973e-01
       25956250   -5.073058605e-01    4.365969300e-01
       25959375   -5.030589700e-01    4.416399002e-01
       25962500   -4.988306463e-01    4.466229379e-01
       25965625   -4.945361614e-01    4.515512884e-01
       25968750   -4.900407195e-01    4.563757777e-01
       25971875   -4.856453836e-01    4.610891342e-01
       25975000   -4.811519384e-01    4.658479989e-01
       25978125   -4.766996801e-01    4.705680311e-01
       25981250   -4.721927345e-01    4.751746953e-01
       25984375   -4.675378203e-01    4.798172712e-01
       25987500   -4.629297256e-01    4.844276607e-01
       25990625   -4.583275318e-01    4.889895618e-01
       25993750   -4.535870850e-01    4.935677350e-01
       25996875   -4.488075078e-01    4.977777302e-01
       26000000   -4.439201057e-01    5.021942854e-01
       26003125   -4.392057955e-01    5.065865517e-01
       26006250   -4.344401956e-01    5.109017491e-01
       26009375   -4.293661714e-01    5.152398944e-01
       26012500   -4.245648980e-01    5.193499327e-01
       26015625   -4.194726348e-01    5.235159397e-01
       26018750   -4.144873917e-01    5.276341438e-01
       26021875   -4.095010757e-01    5.316576958e-01
       26025000   -4.044186473e-01    5.356569290e-01
       26028125   -3.993585408e-01    5.395368934e-01
       26031250   -3.942643106e-01    5.432868600e-01
       26034375   -3.890635073e-01    5.472599268e-01
       26037500   -3.838549852e-01    5.509730577e-01
       26040625   -3.786232173e-01    5.547509193e-01
       26043750   -3.733221292e-01    5.584051609e-01
       26046875   -3.681036234e-01    5.620546937e-01
       26050000   -3.628599346e-01    5.655821562e-01
       26053125   -3.576135933e-01    5.690486431e-01
       26056250   -3.521187007e-01    5.725265145e-01
       26059375   -3.466985524e-01    5.760338306e-01
       26062500   -3.412668109e-01    5.793472528e-01
       26065625   -3.358044028e-01    5.826182365e-01
       26068750   -3.304679394e-01    5.859665871e-01
       26071875   -3.249303401e-01    5.891637802e-01
       26075000   -3.193282187e-01    5.923262239e-01
       26078125   -3.138923049e-01    5.953890085e-01
       26081250   -3.082586825e-01    5.984911323e-01
       26084375   -3.026678860e-01    6.014502048e-01
       26087500   -2.969778776e-01    6.043941975e-01
       26090625   -2.913800180e-01    6.073131561e-01
       26093750   -2.858459055e-01    6.100512743e-01
       26096875   -2.800827622e-01    6.128042340e-01
       26100000   -2.742539942e-01    6.155230999e-01
       26103125   -2.686727643e-01    6.183024049e-01
       26106250   -2.628256679e-01    6.205760837e-01
       26109375   -2.571649253e-01    6.233460307e-01
       26112500   -2.512652278e-01    6.258222461e-01
       26115625   -2.456245124e-01    6.282838583e-01
       26118750   -2.399771959e-01    6.309188604e-01
       26121875   -2.340659499e-01    6.329023242e-01
       26125000   -2.282099873e-01    6.352965236e-01
       26128125   -2.222205400e-01    6.374074221e-01
       26131250   -2.163860351e-01    6.395186186e-01
       26134375   -2.105702162e-01    6.417096257e-01
       26137500   -2.046417892e-01    6.437065601e-01
       26140625   -1.988338381e-01    6.457971931e-01
       26143750   -1.928954870e-01    6.477691531e-01
