! NanoVNA-App
! Date: 2025-03-12 17:48:38
! Start: 420MHz Stop: 450MHz Points: 1601
! S-Parameter data: F S11
# Hz S RI R 50
!     Frequency           S11_Real           S11_Imag
      420000000   -6.483718008e-02   -1.956181377e-01
      420018750   -6.631313264e-02   -1.949453354e-01
      420037500   -6.705799699e-02   -1.944914162e-01
      420056250   -6.814811379e-02   -1.935500056e-01
      420075000   -6.951291114e-02   -1.931059808e-01
      420093750   -7.049923390e-02   -1.928758323e-01
      420112500   -7.160766423e-02   -1.920237392e-01
      420131250   -7.275780290e-02   -1.912006736e-01
      420150000   -7.387669384e-02   -1.906125396e-01
      420168750   -7.491662353e-02   -1.899492294e-01
      420187500   -7.623940706e-02   -1.891588271e-01
      420206250   -7.692576200e-02   -1.884638071e-01
      420225000   -7.782288641e-02   -1.876347363e-01
      420243750   -7.882443815e-02   -1.869350374e-01
      420262500   -7.987316698e-02   -1.861429811e-01
      420281250   -8.088777214e-02   -1.852178723e-01
      420300000   -8.165348321e-02   -1.838742346e-01
      420318750   -8.306292444e-02   -1.826040149e-01
      420337500   -8.344007283e-02   -1.825212091e-01
      420356250   -8.450701088e-02   -1.813033521e-01
      420375000   -8.527337760e-02   -1.805847883e-01
      420393750   -8.585970104e-02   -1.795617491e-01
      420412500   -8.685264736e-02   -1.785279810e-01
      420431250   -8.741909266e-02   -1.777181029e-01
      420450000   -8.807187527e-02   -1.765962094e-01
      420468750   -8.895827830e-02   -1.752973050e-01
      420487500   -8.939106762e-02   -1.745444685e-01
      420506250   -9.004905820e-02   -1.731135249e-01
      420525000   -9.069567174e-02   -1.720997542e-01
      420543750   -9.131714702e-02   -1.712560803e-01
      420562500   -9.192351997e-02   -1.699356139e-01
      420581250   -9.243517369e-02   -1.689440161e-01
      420600000   -9.272834659e-02   -1.677100211e-01
      420618750   -9.308528900e-02   -1.665788740e-01
      420637500   -9.380427748e-02   -1.653402001e-01
      420656250   -9.404537827e-02   -1.643921435e-01
      420675000   -9.463817626e-02   -1.628740877e-01
      420693750   -9.451183677e-02   -1.619435847e-01
      420712500   -9.500142932e-02   -1.606389880e-01
      420731250   -9.491964430e-02   -1.596214026e-01
      420750000   -9.532296658e-02   -1.582396924e-01
      420768750   -9.549157321e-02   -1.572328657e-01
      420787500   -9.576189518e-02   -1.559428573e-01
      420806250   -9.593888372e-02   -1.549642086e-01
      420825000   -9.602329880e-02   -1.537433416e-01
      420843750   -9.584313631e-02   -1.525993198e-01
      420862500   -9.499879926e-02   -1.506900489e-01
      420881250   -9.632583708e-02   -1.502734721e-01
      420900000   -9.620626271e-02   -1.491359472e-01
      420918750   -9.606671333e-02   -1.477141529e-01
      420937500   -8.973342180e-02   -1.495826989e-01
      420956250   -9.595279396e-02   -1.456325054e-01
      420975000   -9.591965377e-02   -1.447189450e-01
      420993750   -9.558220208e-02   -1.432931274e-01
      421012500   -9.542811662e-02   -1.423833817e-01
      421031250   -9.500800073e-02   -1.412505060e-01
      421050000   -9.494583309e-02   -1.400713325e-01
      421068750   -9.463585913e-02   -1.389624178e-01
      421087500   -9.438166022e-02   -1.381277740e-01
      421106250   -9.369375557e-02   -1.368723065e-01
      421125000   -9.365950525e-02   -1.355176121e-01
      421143750   -9.292311966e-02   -1.346121132e-01
      421162500   -9.276758134e-02   -1.337111145e-01
      421181250   -9.231153131e-02   -1.328531653e-01
      421200000   -9.171801060e-02   -1.316963434e-01
      421218750   -9.140662849e-02   -1.308900118e-01
      421237500   -9.090065956e-02   -1.299930215e-01
      421256250   -9.041573852e-02   -1.289719343e-01
      421275000   -8.968151361e-02   -1.280676574e-01
      421293750   -8.919807523e-02   -1.270635128e-01
      421312500   -8.832333982e-02   -1.261674911e-01
      421331250   -8.783372492e-02   -1.252339333e-01
      421350000   -8.705853671e-02   -1.245413199e-01
      421368750   -8.636440337e-02   -1.237321943e-01
      421387500   -8.581738174e-02   -1.228825822e-01
      421406250   -8.513075113e-02   -1.221715137e-01
      421425000   -8.431895077e-02   -1.215383336e-01
      421443750   -8.360470831e-02   -1.207950115e-01
      421462500   -8.267645538e-02   -1.200989783e-01
      421481250   -8.163499087e-02   -1.195536405e-01
      421500000   -8.101483434e-02   -1.186541617e-01
      421518750   -7.995882630e-02   -1.182568669e-01
      421537500   -7.927940786e-02   -1.173934937e-01
      421556250   -7.854911685e-02   -1.171953157e-01
      421575000   -7.739102840e-02   -1.166602448e-01
      421593750   -7.688645273e-02   -1.160960943e-01
      421612500   -7.562451810e-02   -1.157376021e-01
      421631250   -7.498753071e-02   -1.152822822e-01
      421650000   -7.369883358e-02   -1.147062331e-01
      421668750   -7.293447107e-02   -1.146970987e-01
      421687500   -7.224017382e-02   -1.143180728e-01
      421706250   -7.065808773e-02   -1.141145006e-01
      421725000   -7.012810558e-02   -1.133972034e-01
      421743750   -6.939692050e-02   -1.131015047e-01
      421762500   -6.837135553e-02   -1.130406633e-01
      421781250   -6.708134711e-02   -1.130518988e-01
      421800000   -6.638066471e-02   -1.134599298e-01
      421818750   -6.542064250e-02   -1.127753034e-01
      421837500   -6.430032849e-02   -1.128845513e-01
      421856250   -6.337657571e-02   -1.126987562e-01
      421875000   -6.207595393e-02   -1.124701127e-01
      421893750   -6.130642816e-02   -1.127995998e-01
      421912500   -6.026530266e-02   -1.127172709e-01
      421931250   -5.969391763e-02   -1.121991128e-01
      421950000   -5.832676589e-02   -1.126561463e-01
      421968750   -5.777137354e-02   -1.128180102e-01
      421987500   -5.673557147e-02   -1.128168255e-01
      422006250   -5.549800768e-02   -1.133190691e-01
      422025000   -5.477732420e-02   -1.136838198e-01
      422043750   -5.342379957e-02   -1.135434061e-01
      422062500   -5.262602121e-02   -1.135674268e-01
      422081250   -5.165686458e-02   -1.146510169e-01
      422100000   -5.095163733e-02   -1.146273911e-01
      422118750   -5.001267046e-02   -1.151193529e-01
      422137500   -4.889427125e-02   -1.154076979e-01
      422156250   -4.832145944e-02   -1.162617877e-01
      422175000   -4.727862775e-02   -1.162557602e-01
      422193750   -4.645135999e-02   -1.169841960e-01
      422212500   -4.569931701e-02   -1.173027679e-01
      422231250   -4.494046420e-02   -1.180858761e-01
      422250000   -4.423059151e-02   -1.182770133e-01
      422268750   -4.340043291e-02   -1.193982586e-01
      422287500   -4.257884622e-02   -1.197288856e-01
      422306250   -4.190354422e-02   -1.204063371e-01
      422325000   -4.088825732e-02   -1.211108267e-01
      422343750   -4.000330344e-02   -1.218296811e-01
      422362500   -4.026252404e-02   -1.226439551e-01
      422381250   -3.918128833e-02   -1.234569401e-01
      422400000   -3.814886138e-02   -1.241120547e-01
      422418750   -3.762745857e-02   -1.252759397e-01
      422437500   -3.705548495e-02   -1.257099956e-01
      422456250   -3.625486419e-02   -1.270442903e-01
      422475000   -3.564034030e-02   -1.273128837e-01
      422493750   -3.546021879e-02   -1.274249107e-01
      422512500   -3.475906327e-02   -1.295411587e-01
      422531250   -3.450667113e-02   -1.306644678e-01
      422550000   -3.436692804e-02   -1.313887239e-01
      422568750   -3.380898386e-02   -1.322553903e-01
      422587500   -3.336845338e-02   -1.336653382e-01
      422606250   -3.318594024e-02   -1.338479221e-01
      422625000   -3.269848228e-02   -1.348124743e-01
      422643750   -3.238665685e-02   -1.360789835e-01
      422662500   -3.206728399e-02   -1.369513571e-01
      422681250   -3.174287826e-02   -1.383402646e-01
      422700000   -3.160144761e-02   -1.392830312e-01
      422718750   -3.183284402e-02   -1.405359954e-01
      422737500   -3.159900382e-02   -1.414754689e-01
      422756250   -3.141029552e-02   -1.425598413e-01
      422775000   -3.157422692e-02   -1.434331983e-01
      422793750   -3.098482452e-02   -1.444787979e-01
      422812500   -3.098761104e-02   -1.457131505e-01
      422831250   -3.126065806e-02   -1.469254494e-01
      422850000   -3.109178506e-02   -1.480510533e-01
      422868750   -3.139454871e-02   -1.488866508e-01
      422887500   -3.134676442e-02   -1.501230747e-01
      422906250   -3.147701174e-02   -1.514803320e-01
      422925000   -3.169499338e-02   -1.527423710e-01
      422943750   -3.200416639e-02   -1.535323858e-01
      422962500   -3.191716596e-02   -1.548335403e-01
      422981250   -3.240932152e-02   -1.559220105e-01
      423000000   -3.248782083e-02   -1.565950364e-01
      423018750   -3.275980428e-02   -1.580121368e-01
      423037500   -3.365139291e-02   -1.587492079e-01
      423056250   -3.360251337e-02   -1.600738764e-01
      423075000   -3.407960758e-02   -1.610779762e-01
      423093750   -3.482908383e-02   -1.621732712e-01
      423112500   -3.508661687e-02   -1.633133590e-01
      423131250   -3.548699617e-02   -1.641070992e-01
      423150000   -3.616629913e-02   -1.652319729e-01
      423168750   -3.654549643e-02   -1.659447104e-01
      423187500   -3.715988249e-02   -1.671333313e-01
      423206250   -3.804631531e-02   -1.686017215e-01
      423225000   -3.862999752e-02   -1.694541574e-01
      423243750   -3.927822784e-02   -1.701467037e-01
      423262500   -3.961660340e-02   -1.718729883e-01
      423281250   -4.074871168e-02   -1.723386794e-01
      423300000   -4.112005606e-02   -1.736389995e-01
      423318750   -4.215527698e-02   -1.741000712e-01
      423337500   -4.271677136e-02   -1.752727628e-01
      423356250   -4.396322370e-02   -1.761455536e-01
      423375000   -4.461241513e-02   -1.767968833e-01
      423393750   -4.543788731e-02   -1.775451154e-01
      423412500   -4.638236389e-02   -1.785174310e-01
      423431250   -4.749017581e-02   -1.792151481e-01
      423450000   -4.807369784e-02   -1.802906543e-01
      423468750   -4.898762703e-02   -1.808730960e-01
      423487500   -5.020596460e-02   -1.815717071e-01
      423506250   -5.093683302e-02   -1.826175451e-01
      423525000   -5.222175270e-02   -1.829468608e-01
      423543750   -5.352646112e-02   -1.840678155e-01
      423562500   -5.469646305e-02   -1.845928729e-01
      423581250   -5.563908815e-02   -1.852426231e-01
      423600000   -5.657689273e-02   -1.856935322e-01
      423618750   -5.728532746e-02   -1.862746328e-01
      423637500   -5.885852128e-02   -1.868442446e-01
      423656250   -5.953382701e-02   -1.874570698e-01
      423675000   -6.083934382e-02   -1.883059293e-01
      423693750   -6.177334115e-02   -1.886166483e-01
      423712500   -6.339897215e-02   -1.889936477e-01
      423731250   -6.438697875e-02   -1.889585853e-01
      423750000   -6.553242356e-02   -1.895817965e-01
      423768750   -6.663537025e-02   -1.897521317e-01
      423787500   -6.800958514e-02   -1.906054467e-01
      423806250   -6.958057731e-02   -1.906771213e-01
      423825000   -7.024890184e-02   -1.909335852e-01
      423843750   -7.174815238e-02   -1.912273616e-01
      423862500   -7.300177962e-02   -1.911290437e-01
      423881250   -7.441480458e-02   -1.914937347e-01
      423900000   -7.582250983e-02   -1.920277625e-01
      423918750   -7.682636380e-02   -1.919362545e-01
      423937500   -7.811629027e-02   -1.919175088e-01
      423956250   -7.910580188e-02   -1.918119341e-01
      423975000   -8.058936149e-02   -1.918659806e-01
      423993750   -8.198086917e-02   -1.918153465e-01
      424012500   -8.361146599e-02   -1.919332594e-01
      424031250   -8.419848979e-02   -1.921875328e-01
      424050000   -8.538527787e-02   -1.919526607e-01
      424068750   -8.676287532e-02   -1.917576790e-01
      424087500   -8.842156827e-02   -1.917872280e-01
      424106250   -8.940671384e-02   -1.910676956e-01
      424125000   -9.056831151e-02   -1.911883205e-01
      424143750   -9.194442630e-02   -1.905730963e-01
      424162500   -9.299486130e-02   -1.909235865e-01
      424181250   -9.446483850e-02   -1.900573373e-01
      424200000   -9.544526041e-02   -1.895631701e-01
      424218750   -9.701069444e-02   -1.894779056e-01
      424237500   -9.793765098e-02   -1.891231388e-01
      424256250   -9.897907078e-02   -1.885838211e-01
      424275000   -1.002305150e-01   -1.883294582e-01
      424293750   -1.019102335e-01   -1.879692674e-01
      424312500   -1.023386791e-01   -1.874061078e-01
      424331250   -1.037066653e-01   -1.865423620e-01
      424350000   -1.050880700e-01   -1.863679439e-01
      424368750   -1.055672243e-01   -1.854983717e-01
      424387500   -1.069553643e-01   -1.853096783e-01
      424406250   -1.078894436e-01   -1.844949722e-01
      424425000   -1.089743748e-01   -1.837780327e-01
      424443750   -1.100828126e-01   -1.827183962e-01
      424462500   -1.108280569e-01   -1.822429001e-01
      424481250   -1.118469685e-01   -1.817816347e-01
      424500000   -1.129506752e-01   -1.808515936e-01
      424518750   -1.136606783e-01   -1.800650060e-01
      424537500   -1.147857308e-01   -1.794972718e-01
      424556250   -1.156628355e-01   -1.786716133e-01
      424575000   -1.162264422e-01   -1.772674620e-01
      424593750   -1.174227074e-01   -1.766231358e-01
      424612500   -1.181617528e-01   -1.760913134e-01
      424631250   -1.190144941e-01   -1.746795475e-01
      424650000   -1.194621995e-01   -1.738824248e-01
      424668750   -1.202767044e-01   -1.730892956e-01
      424687500   -1.208888441e-01   -1.721004844e-01
      424706250   -1.219052523e-01   -1.712074578e-01
      424725000   -1.226852909e-01   -1.702424884e-01
      424743750   -1.231820360e-01   -1.692451388e-01
      424762500   -1.239102036e-01   -1.685297191e-01
      424781250   -1.245691404e-01   -1.675920784e-01
      424800000   -1.249810904e-01   -1.663805246e-01
      424818750   -1.253558248e-01   -1.653278768e-01
      424837500   -1.259307712e-01   -1.644756794e-01
      424856250   -1.263190955e-01   -1.634742320e-01
      424875000   -1.268056780e-01   -1.622697562e-01
      424893750   -1.267545968e-01   -1.613868177e-01
      424912500   -1.277357489e-01   -1.599911749e-01
      424931250   -1.278747171e-01   -1.590439230e-01
      424950000   -1.285152286e-01   -1.576500684e-01
      424968750   -1.286781579e-01   -1.568340659e-01
      424987500   -1.293383837e-01   -1.560086608e-01
      425006250   -1.290797293e-01   -1.544538438e-01
      425025000   -1.295015663e-01   -1.535922885e-01
      425043750   -1.290325373e-01   -1.523554027e-01
      425062500   -1.295828372e-01   -1.513247192e-01
      425081250   -1.295477599e-01   -1.504864693e-01
      425100000   -1.297110170e-01   -1.492142677e-01
      425118750   -1.296743602e-01   -1.479879916e-01
      425137500   -1.298570335e-01   -1.467155665e-01
      425156250   -1.295087039e-01   -1.461632699e-01
      425175000   -1.297013462e-01   -1.449408531e-01
      425193750   -1.283820421e-01   -1.429165751e-01
      425212500   -1.295165718e-01   -1.427660882e-01
      425231250   -1.292584091e-01   -1.417746991e-01
      425250000   -1.291855425e-01   -1.407573968e-01
      425268750   -1.288460940e-01   -1.394359767e-01
      425287500   -1.285964549e-01   -1.384400129e-01
      425306250   -1.281714737e-01   -1.373595297e-01
      425325000   -1.282931417e-01   -1.363707781e-01
      425343750   -1.276003420e-01   -1.356237680e-01
      425362500   -1.274901330e-01   -1.344863027e-01
      425381250   -1.271160841e-01   -1.335249245e-01
      425400000   -1.266981810e-01   -1.328405887e-01
      425418750   -1.261708736e-01   -1.315891743e-01
      425437500   -1.258045137e-01   -1.308909506e-01
      425456250   -1.252974123e-01   -1.299300194e-01
      425475000   -1.250035614e-01   -1.289791316e-01
      425493750   -1.243492439e-01   -1.282322109e-01
      425512500   -1.238268539e-01   -1.273515224e-01
      425531250   -1.233204901e-01   -1.265866160e-01
      425550000   -1.225652844e-01   -1.255621612e-01
      425568750   -1.218488514e-01   -1.245596558e-01
      425587500   -1.213888675e-01   -1.241884679e-01
      425606250   -1.207271665e-01   -1.232295260e-01
      425625000   -1.199864745e-01   -1.224986017e-01
      425643750   -1.193363741e-01   -1.218361855e-01
      425662500   -1.186143458e-01   -1.212622821e-01
      425681250   -1.176794991e-01   -1.204546839e-01
      425700000   -1.171817482e-01   -1.198581755e-01
      425718750   -1.165021583e-01   -1.191999540e-01
      425737500   -1.167038307e-01   -1.188426465e-01
      425756250   -1.146386862e-01   -1.181592271e-01
      425775000   -1.137678996e-01   -1.178789884e-01
      425793750   -1.130556688e-01   -1.171261072e-01
      425812500   -1.120775342e-01   -1.166660935e-01
      425831250   -1.114662588e-01   -1.163555160e-01
      425850000   -1.104563847e-01   -1.158862859e-01
      425868750   -1.095940918e-01   -1.154789105e-01
      425887500   -1.085436046e-01   -1.152247190e-01
      425906250   -1.078297198e-01   -1.146662161e-01
      425925000   -1.072615460e-01   -1.141334325e-01
      425943750   -1.062701121e-01   -1.139589101e-01
      425962500   -1.050430834e-01   -1.138749123e-01
      425981250   -1.041598991e-01   -1.138032526e-01
      426000000   -1.034322903e-01   -1.133825332e-01
      426018750   -1.024549231e-01   -1.133327410e-01
      426037500   -1.016190723e-01   -1.132611483e-01
      426056250   -1.007722095e-01   -1.130172312e-01
      426075000   -9.974533319e-02   -1.130463481e-01
      426093750   -9.943845868e-02   -1.121429428e-01
      426112500   -9.702134132e-02   -1.131023839e-01
      426131250   -9.693741053e-02   -1.129878685e-01
      426150000   -9.614354372e-02   -1.130249500e-01
      426168750   -9.500631690e-02   -1.132271886e-01
      426187500   -9.438075125e-02   -1.133762896e-01
      426206250   -9.337424487e-02   -1.134290993e-01
      426225000   -9.240128845e-02   -1.136100143e-01
      426243750   -9.164532274e-02   -1.139216945e-01
      426262500   -9.081239998e-02   -1.141531616e-01
      426281250   -8.981119096e-02   -1.144539341e-01
      426300000   -8.901748806e-02   -1.144569963e-01
      426318750   -8.819790184e-02   -1.148632616e-01
      426337500   -8.746803552e-02   -1.151671708e-01
      426356250   -8.654330671e-02   -1.156841442e-01
      426375000   -8.554743230e-02   -1.160760671e-01
      426393750   -8.474677056e-02   -1.163469478e-01
      426412500   -8.418019116e-02   -1.167750582e-01
      426431250   -8.359950036e-02   -1.176920012e-01
      426450000   -8.259135485e-02   -1.179693192e-01
      426468750   -8.208547533e-02   -1.185735166e-01
      426487500   -8.114679903e-02   -1.189405397e-01
      426506250   -8.064887673e-02   -1.194604933e-01
      426525000   -8.023711294e-02   -1.202260926e-01
      426543750   -7.928854972e-02   -1.207250282e-01
      426562500   -7.886675000e-02   -1.213121042e-01
      426581250   -7.810059935e-02   -1.220160648e-01
      426600000   -7.758120447e-02   -1.229922026e-01
      426618750   -7.718579471e-02   -1.236126572e-01
      426637500   -7.670775056e-02   -1.242203489e-01
      426656250   -7.729336619e-02   -1.249558851e-01
      426675000   -7.569595426e-02   -1.257525086e-01
      426693750   -7.536353916e-02   -1.266804636e-01
      426712500   -7.492782176e-02   -1.271960735e-01
      426731250   -7.449106127e-02   -1.281607747e-01
      426750000   -7.395313680e-02   -1.289744973e-01
      426768750   -7.371437550e-02   -1.295477450e-01
      426787500   -7.349124551e-02   -1.306210458e-01
      426806250   -7.316683978e-02   -1.314068139e-01
      426825000   -7.279644161e-02   -1.323640645e-01
      426843750   -7.275853306e-02   -1.331224442e-01
      426862500   -7.240132987e-02   -1.336471140e-01
